date Tue Oct 06 23:58:49.891 2026
base hex  timestamps absolute
internal events logged
Begin Triggerblock Tue Oct 06 23:59:22.350 2026
 0.000000 Start of measurement
 0.000000 1  300             Rx   d 8 00 00 04 00 00 00 00 00
 0.000541 1  310             Rx   d 8 00 02 2C 25 EF A1 F4 1B
 0.000991 1  310             Rx   d 8 10 82 64 EF 6E 41 E1 03
 0.001401 1  310             Rx   d 8 20 02 A4 97 76 05 01 04
 0.001802 1  310             Rx   d 8 30 82 1B 78 75 25 D1 03
 0.186982 1  300             Rx   d 8 01 00 04 32 00 00 00 00
 0.187826 1  310             Rx   d 8 01 82 6D 22 EF 4D 44 1D
 0.188662 1  310             Rx   d 8 11 02 A4 94 7E 09 E1 03
 0.189514 1  310             Rx   d 8 21 82 A2 EF 76 3D D1 03
 0.190038 1  310             Rx   d 8 31 02 5E 76 80 35 C1 03
 0.353067 1  300             Rx   d 8 02 00 03 32 00 00 00 00
 0.353616 1  310             Rx   d 8 02 82 AD 1F 00 F2 A3 1D
 0.354091 1  310             Rx   d 8 12 82 A5 92 7B 05 E1 03
 0.354558 1  310             Rx   d 8 22 02 A5 EF 75 41 E1 03
 0.514122 1  300             Rx   d 8 03 00 05 32 00 47 00 00
 0.514671 1  310             Rx   d 8 03 82 ED 1D EB B5 43 1C
 0.515187 1  310             Rx   d 8 13 82 A9 72 76 39 21 04
 0.515744 1  310             Rx   d 8 23 82 A5 F0 72 29 21 04
 0.516219 1  310             Rx   d 8 33 02 25 90 76 01 01 04
 0.516694 1  310             Rx   d 8 43 02 9A 99 5E 85 E0 01
 0.713040 1  300             Rx   d 8 04 00 06 32 00 47 00 00
 0.713548 1  310             Rx   d 8 04 02 2E 1B ED 65 D3 1C
 0.714023 1  310             Rx   d 8 14 82 A6 F1 74 11 61 04
 0.714482 1  310             Rx   d 8 24 82 23 8F 7C FD C0 03
 0.714859 1  310             Rx   d 8 34 02 E2 71 7C 3D 11 04
 0.715194 1  310             Rx   d 8 44 02 19 99 63 81 40 02
 0.715539 1  310             Rx   d 8 54 02 59 D1 5E B1 60 02
 0.913637 1  300             Rx   d 8 05 00 04 32 00 46 00 00
 0.914416 1  310             Rx   d 8 05 02 6C 18 F1 09 03 1D
 0.915440 1  310             Rx   d 8 15 02 67 8E 7B 05 E1 03
 0.916193 1  310             Rx   d 8 25 82 9F F3 78 CD 20 04
 0.917209 1  310             Rx   d 8 35 82 1D 71 7D 3D E1 03
 1.050100 1  320             Rx   d 8 19 00 00 0A 00 02 00 00
 1.113334 1  300             Rx   d 8 06 00 02 32 00 46 00 00
 1.114137 1  310             Rx   d 8 06 82 69 16 F4 C9 72 1C
 1.114800 1  310             Rx   d 8 16 02 A6 8E 87 01 C1 03
 1.313645 1  300             Rx   d 8 07 00 05 32 00 47 00 00
 1.314562 1  310             Rx   d 8 07 82 26 14 F8 89 A2 1D
 1.315603 1  310             Rx   d 8 17 82 66 8E 85 01 E1 03
 1.316635 1  310             Rx   d 8 27 82 1E 70 88 11 C1 03
 1.317192 1  310             Rx   d 8 37 02 9A F6 84 69 D0 02
 1.317634 1  310             Rx   d 8 47 02 59 C8 66 A1 20 02
 1.513226 1  300             Rx   d 8 08 00 05 32 00 46 00 00
 1.514103 1  310             Rx   d 8 08 02 68 12 08 4A F2 19
 1.514766 1  310             Rx   d 8 18 82 E0 8D 84 FD F0 03
 1.515405 1  310             Rx   d 8 28 82 1C F3 73 CD 00 03
 1.516085 1  310             Rx   d 8 38 02 5B D5 69 AD F0 01
 1.516708 1  310             Rx   d 8 48 02 5B 70 88 19 C1 03
 1.712759 1  300             Rx   d 8 09 00 02 32 00 46 00 00
 1.713553 1  310             Rx   d 8 09 02 21 70 87 01 01 03
 1.714102 1  310             Rx   d 8 19 82 D9 8C 96 FD 80 01
 1.911415 1  300             Rx   d 8 0A 00 02 32 00 00 00 00
 1.912169 1  310             Rx   d 8 0A 82 5A CB 58 B9 70 02
 1.912832 1  310             Rx   d 8 1A 08 19 87 84 95 C1 02
 2.049892 1  320             Rx   d 8 1E 00 00 0A 00 01 00 00
 2.112488 1  300             Rx   d 8 0B 00 03 32 00 46 00 00
 2.112979 1  310             Rx   d 8 0B 82 1C CD 5E CD C0 02
 2.113479 1  310             Rx   d 8 1B 02 9B 70 85 F9 30 03
 2.113872 1  310             Rx   d 8 2B 82 5A DA 62 A9 50 02
 2.312839 1  300             Rx   d 8 0C 00 05 32 00 46 00 00
 2.313617 1  310             Rx   d 8 0C 02 64 71 87 F9 30 03
 2.314142 1  310             Rx   d 8 1C 02 1E 0B 31 66 71 18
 2.314625 1  310             Rx   d 8 2C 82 5C 8C 88 F9 E0 02
 2.315084 1  310             Rx   d 8 3C 02 DA 99 6B 6D C0 01
 2.315534 1  310             Rx   d 8 4C 02 D9 F4 6E A5 A0 02
 2.512454 1  300             Rx   d 8 0D 00 04 32 00 46 00 00
 2.513265 1  310             Rx   d 8 0D 02 60 09 2B 2E 41 1A
 2.513764 1  310             Rx   d 8 1D 02 5C 8C 86 F9 00 03
 2.514240 1  310             Rx   d 8 2D 82 9B 9A 68 6D E0 01
 2.514682 1  310             Rx   d 8 3D 82 5B D2 62 D1 70 02
 2.712568 1  300             Rx   d 8 0E 00 05 32 00 46 00 00
 2.713166 1  310             Rx   d 8 0E 82 A1 8C 83 F5 F0 02
 2.713666 1  310             Rx   d 8 1E 02 21 D5 63 05 A1 02
 2.714165 1  310             Rx   d 8 2E 02 9D 07 53 EE B0 19
 2.714640 1  310             Rx   d 8 3E 02 1C 9B 68 71 D0 01
 2.715116 1  310             Rx   d 8 4E 02 5A 72 83 ED 10 03
 2.912289 1  300             Rx   d 8 0F 00 03 32 00 46 00 00
 2.912862 1  310             Rx   d 8 0F 82 24 8D 7B F5 60 03
 2.913370 1  310             Rx   d 8 1F 82 E1 73 7C FD 60 03
 2.913829 1  310             Rx   d 8 2F 82 DC F1 5B E1 90 02
 3.049890 1  320             Rx   d 8 1E 00 00 0A 00 01 00 00
 3.112526 1  300             Rx   d 8 10 00 03 32 00 46 00 00
 3.113304 1  310             Rx   d 8 00 02 E5 8D 75 ED 00 03
 3.114041 1  310             Rx   d 8 10 02 24 76 73 15 B1 03
 3.114558 1  310             Rx   d 8 20 82 E0 DD 5D F1 30 03
 3.312378 1  300             Rx   d 8 11 00 04 32 00 46 00 00
 3.313066 1  310             Rx   d 8 01 02 E5 8E 71 F5 70 03
 3.313500 1  310             Rx   d 8 11 82 5D E0 5E 1D 61 03
 3.313894 1  310             Rx   d 8 21 82 9A 76 71 09 71 03
 3.314295 1  310             Rx   d 8 31 82 D9 ED 5B C1 F0 02
 3.512492 1  300             Rx   d 8 12 00 05 32 00 46 00 00
 3.513369 1  310             Rx   d 8 02 82 A2 8F 70 FD 80 03
 3.514253 1  310             Rx   d 8 12 02 E1 76 71 F9 70 03
 3.514778 1  310             Rx   d 8 22 02 DD 27 6D F5 41 06
 3.515269 1  310             Rx   d 8 32 82 1C C6 42 A1 10 02
 3.515736 1  310             Rx   d 8 42 02 1C 9E 67 99 E0 01
 3.712057 1  300             Rx   d 8 13 00 04 32 00 46 00 00
 3.712860 1  310             Rx   d 8 03 82 E6 90 70 FD 80 03
 3.713360 1  310             Rx   d 8 13 82 E1 E7 64 81 B1 03
 3.713851 1  310             Rx   d 8 23 02 1B DC 4D 29 71 03
 3.714335 1  310             Rx   d 8 33 02 9A 9D 6A B5 D0 01
 3.911615 1  300             Rx   d 8 14 00 05 32 00 00 00 00
 3.912262 1  310             Rx   d 8 04 02 66 91 6D F1 D0 03
 3.912835 1  310             Rx   d 8 14 02 A0 EC 61 A5 31 04
 3.913335 1  310             Rx   d 8 24 02 DE 79 71 19 71 03
 3.914039 1  310             Rx   d 8 34 02 9B DE 4E 41 C1 03
 3.914457 1  310             Rx   d 8 44 82 D9 9E 6D B1 B0 01
 4.049871 1  320             Rx   d 8 1E 00 00 0A 00 01 00 00
 4.112089 1  300             Rx   d 8 15 00 04 32 00 46 00 00
 4.112966 1  310             Rx   d 8 05 02 A5 91 73 F1 00 04
 4.113752 1  310             Rx   d 8 15 82 A1 ED 6A 7D 21 04
 4.114276 1  310             Rx   d 8 25 82 9B DF 54 59 B1 03
 4.114711 1  310             Rx   d 8 35 82 99 78 7A FD 50 03
 4.311777 1  300             Rx   d 8 16 00 05 32 00 46 00 00
 4.312498 1  310             Rx   d 8 06 82 25 91 80 F9 B0 03
 4.313178 1  310             Rx   d 8 16 82 1C 78 82 F1 70 03
 4.313703 1  310             Rx   d 8 26 02 1C E1 5D 55 F1 03
 4.314210 1  310             Rx   d 8 36 82 9B EF 78 39 A1 03
 4.314669 1  310             Rx   d 8 46 02 9A F4 7E A9 60 03
 4.510769 1  300             Rx   d 8 17 00 04 32 00 46 00 00
 4.511334 1  310             Rx   d 8 07 82 A1 F1 5D 09 11 04
 4.511777 1  310             Rx   d 8 17 87 DC 78 74 45 D1 03
 4.512252 1  310             Rx   d 8 27 02 1A E8 54 DD 60 03
 4.512637 1  310             Rx   d 8 37 82 19 91 71 FD E0 03
 4.711506 1  300             Rx   d 8 18 00 02 32 00 46 00 00
 4.712243 1  310             Rx   d 8 08 02 A3 91 68 FD E0 03
 4.712735 1  310             Rx   d 8 18 82 DE 79 6A 1D E1 03
 4.911415 1  300             Rx   d 8 19 00 02 32 00 46 00 00
 4.912317 1  310             Rx   d 8 09 82 E1 91 80 FD C0 03
 4.912857 1  310             Rx   d 8 19 02 1B 79 84 0D 81 03
 5.049852 1  320             Rx   d 8 1D 00 00 0C 00 01 00 00
 5.111194 1  300             Rx   d 8 1A 00 05 32 00 46 00 00
 5.112021 1  310             Rx   d 8 0A 82 DC 78 8E 25 D1 03
 5.112816 1  310             Rx   d 8 1A 82 DC 91 8B F5 90 03
 5.113659 1  310             Rx   d 8 2A 02 DA E3 5A 09 E1 02
 5.114495 1  310             Rx   d 8 3A 02 9A 9D 95 75 B0 01
 5.115109 1  310             Rx   d 8 4A 02 D9 F2 64 ED 00 04
 5.311054 1  300             Rx   d 8 1B 00 02 32 00 46 00 00
 5.311922 1  310             Rx   d 8 0B 82 DF 91 91 F5 B0 03
 5.312873 1  310             Rx   d 8 1B 02 1A 78 92 35 F1 03
 5.510242 1  300             Rx   d 8 1C 00 02 32 00 46 00 00
 5.510808 1  310             Rx   d 8 0C 02 E2 90 92 F1 E0 03
 5.511291 1  310             Rx   d 8 1C 82 9F 77 95 0D A1 03
 5.710397 1  300             Rx   d 8 1D 00 02 32 00 46 00 00
 5.710848 1  310             Rx   d 8 0D 02 67 91 9A F5 D0 03
 5.711323 1  310             Rx   d 8 1D 82 1D 78 9C 21 E1 03
 5.911331 1  300             Rx   d 8 1E 00 05 32 00 46 00 00
 5.911888 1  310             Rx   d 8 0E 82 A1 91 9D 0D C1 03
 5.912388 1  310             Rx   d 8 1E 82 DF F2 5A BD 20 03
 5.912863 1  310             Rx   d 8 2E 82 9A EB B6 D6 51 24
 5.913354 1  310             Rx   d 8 3E 02 1A EA 53 B5 E0 02
 5.913739 1  310             Rx   d 8 4E 02 9A 77 A3 01 71 03
 6.049915 1  320             Rx   d 8 19 00 00 0E 00 01 00 00
 6.110233 1  300             Rx   d 8 1F 00 02 32 00 46 00 00
 6.110781 1  310             Rx   d 8 0F 82 63 92 9C FD 90 03
 6.111265 1  310             Rx   d 8 1F 82 5E 79 9B 25 21 04
 6.311264 1  300             Rx   d 8 20 00 06 32 00 46 00 00
 6.312010 1  310             Rx   d 8 00 02 28 92 94 FD C0 03
 6.312706 1  310             Rx   d 8 10 02 A2 ED CC 85 A1 14
 6.313239 1  310             Rx   d 8 20 82 1F 79 93 11 D1 03
 6.313714 1  310             Rx   d 8 30 82 DD 07 6A FE 90 1C
 6.314140 1  310             Rx   d 8 40 82 5A F0 39 C5 E0 02
 6.314549 1  310             Rx   d 8 50 80 D9 E6 29 95 70 03
 6.511387 1  300             Rx   d 8 21 00 04 32 00 46 00 00
 6.512271 1  310             Rx   d 8 01 02 29 EB B5 D1 B1 12
 6.513148 1  310             Rx   d 8 11 02 27 91 93 FD D0 03
 6.513795 1  310             Rx   d 8 21 82 E6 78 92 0D 01 04
 6.514434 1  310             Rx   d 8 31 02 A1 0A 57 52 E1 1A
 6.710485 1  300             Rx   d 8 22 00 04 32 00 00 00 00
 6.711222 1  310             Rx   d 8 02 02 AB E8 B5 15 42 12
 6.711960 1  310             Rx   d 8 12 02 E6 90 98 ED B0 03
 6.712558 1  310             Rx   d 8 22 02 26 78 96 09 D1 03
 6.713008 1  310             Rx   d 8 32 82 DE 0D 44 BE A1 21
 6.911230 1  300             Rx   d 8 23 00 04 32 00 46 00 00
 6.911762 1  310             Rx   d 8 03 82 6A E7 AB 45 82 11
 6.912254 1  310             Rx   d 8 13 02 E7 90 9B F5 B0 03
 6.912729 1  310             Rx   d 8 23 82 66 11 3F 2A C2 22
 6.913131 1  310             Rx   d 8 33 02 1E 78 99 01 B1 03
 7.049888 1  320             Rx   d 8 19 00 00 0E 00 01 00 00
 7.110877 1  300             Rx   d 8 24 00 04 32 00 46 00 00
 7.111426 1  310             Rx   d 8 04 02 69 14 3A 92 C2 20
 7.111909 1  310             Rx   d 8 14 02 E9 E5 CA 85 22 14
 7.112360 1  310             Rx   d 8 24 02 E5 90 9B E9 30 03
 7.112819 1  310             Rx   d 8 34 82 24 78 96 01 B1 03
 7.311270 1  300             Rx   d 8 25 00 05 32 00 47 00 00
 7.311811 1  310             Rx   d 8 05 02 6C E4 B0 AD B2 10
 7.312302 1  310             Rx   d 8 15 02 A8 17 2F FA F2 1F
 7.312802 1  310             Rx   d 8 25 82 64 90 93 F9 F0 03
 7.313170 1  310             Rx   d 8 35 02 A3 78 92 05 D1 03
 7.313539 1  310             Rx   d 8 45 02 E0 25 8A 99 11 04
 7.510532 1  300             Rx   d 8 26 00 04 32 00 00 00 00
 7.511015 1  310             Rx   d 8 06 02 AC E2 B2 D9 22 10
 7.511499 1  310             Rx   d 8 16 82 EB 1A 26 5E 63 20
 7.511909 1  310             Rx   d 8 26 82 24 90 90 FD 00 04
 7.512269 1  310             Rx   d 8 36 02 61 78 91 FD D0 03
 7.710958 1  300             Rx   d 8 27 00 04 32 00 46 00 00
 7.711548 1  310             Rx   d 8 07 82 6C E1 B0 FD 02 10
 7.712055 1  310             Rx   d 8 17 82 EC 1D 39 BE 93 24
 7.712490 1  310             Rx   d 8 27 82 62 90 8F F9 10 04
 7.712891 1  310             Rx   d 8 37 02 A0 78 8F E5 40 03
 7.910974 1  300             Rx   d 8 28 00 04 32 00 47 00 00
 7.911637 1  310             Rx   d 8 08 02 EE 20 35 1E D4 24
 7.912161 1  310             Rx   d 8 18 82 6B E0 A8 19 43 0E
 7.912661 1  310             Rx   d 8 28 82 A4 79 8C ED D0 02
 7.913079 1  310             Rx   d 8 38 82 E1 90 8B F5 70 03
 8.049975 1  320             Rx   d 8 1D 00 00 0A 00 01 00 00
 8.110039 1  300             Rx   d 8 29 00 05 32 00 46 00 00
 8.110482 1  310             Rx   d 8 09 02 AF 23 38 72 64 22
 8.110899 1  310             Rx   d 8 19 02 AD DF A1 39 03 0D
 8.111317 1  310             Rx   d 8 29 82 60 91 87 F1 90 03
 8.111702 1  310             Rx   d 8 39 02 A0 79 87 DD 00 03
 8.112071 1  310             Rx   d 8 49 82 59 C4 82 51 21 05
 8.310645 1  300             Rx   d 8 2A 00 05 32 00 47 00 00
 8.311218 1  310             Rx   d 8 0A 02 ED 25 2D BA A4 21
 8.311693 1  310             Rx   d 8 1A 82 29 DE A0 55 F3 0C
 8.312177 1  310             Rx   d 8 2A 82 28 91 81 F1 C0 03
 8.312578 1  310             Rx   d 8 3A 02 67 7A 82 E9 F0 02
 8.312979 1  310             Rx   d 8 4A 07 9D B5 9D DC 94 13
 8.510505 1  300             Rx   d 8 2B 00 05 32 00 46 00 00
 8.511079 1  310             Rx   d 8 0B 82 AD 27 23 EE 44 21
 8.511570 1  310             Rx   d 8 1B 02 67 DD A0 85 A3 0C
 8.511980 1  310             Rx   d 8 2B 02 A2 90 7D E5 A0 03
 8.512357 1  310             Rx   d 8 3B 82 1D 7A 7E D5 B0 02
 8.512733 1  310             Rx   d 8 4B 87 5A BB 80 80 E4 0F
 8.709988 1  300             Rx   d 8 2C 00 04 32 00 00 00 00
 8.710726 1  310             Rx   d 8 0C 82 2E 29 F2 1D 15 1A
 8.711430 1  310             Rx   d 8 1C 02 6B DB 9B 8D 53 0C
 8.711914 1  310             Rx   d 8 2C 02 62 90 79 F1 B0 03
 8.712331 1  310             Rx   d 8 3C 82 E0 79 7A D9 A0 02
 8.910414 1  300             Rx   d 8 2D 00 04 32 00 46 00 00
 8.911160 1  310             Rx   d 8 0D 82 6F 2A D7 49 55 16
 8.911864 1  310             Rx   d 8 1D 02 29 D7 9B 65 93 0B
 8.912388 1  310             Rx   d 8 2D 82 63 7A 79 D1 90 02
 8.912888 1  310             Rx   d 8 3D 82 A1 8F 7B F1 80 03
 9.049957 1  320             Rx   d 8 1C 00 00 0A 00 02 00 00
 9.109676 1  300             Rx   d 8 2E 00 05 32 00 46 00 00
 9.110135 1  310             Rx   d 8 0E 82 AF 2B D6 6D 65 15
 9.110503 1  310             Rx   d 8 1E 82 2C D4 9C 39 D3 0B
 9.110905 1  310             Rx   d 8 2E 82 24 8F 78 F9 A0 03
 9.111282 1  310             Rx   d 8 3E 82 20 7A 75 D9 80 02
 9.111675 1  310             Rx   d 8 4E 02 20 BB 54 A1 30 02
 9.310118 1  300             Rx   d 8 2F 00 05 32 00 46 00 00
 9.310659 1  310             Rx   d 8 0F 02 6E 2C D1 89 45 15
 9.311150 1  310             Rx   d 8 1F 02 2C D1 97 19 73 0B
 9.311634 1  310             Rx   d 8 2F 82 E3 8E 73 F1 80 03
 9.312166 1  310             Rx   d 8 3F 02 62 7A 6D D5 B0 02
 9.312608 1  310             Rx   d 8 4F 02 DD 88 28 45 51 04
 9.510011 1  300             Rx   d 8 30 00 05 32 00 46 00 00
 9.510617 1  310             Rx   d 8 00 82 2E 2D CA A1 15 14
 9.511166 1  310             Rx   d 8 10 82 AB CE 95 FD F2 0A
 9.511715 1  310             Rx   d 8 20 02 A8 8E 73 F1 70 03
 9.512174 1  310             Rx   d 8 30 82 9E B8 52 B5 70 02
 9.512641 1  310             Rx   d 8 40 82 9B 7A 6D C1 70 02
 9.709421 1  300             Rx   d 8 31 00 03 32 00 00 00 00
 9.709978 1  310             Rx   d 8 01 02 AF 2D CD A5 75 14
 9.710445 1  310             Rx   d 8 11 82 EB CB 91 D5 72 0A
 9.710912 1  310             Rx   d 8 21 82 E4 8D 70 F5 90 03
 9.910354 1  300             Rx   d 8 32 00 04 32 00 46 00 00
 9.910887 1  310             Rx   d 8 02 02 2F 30 CC 61 E5 13
 9.911394 1  310             Rx   d 8 12 82 2C C9 8F BD 82 0A
 9.911878 1  310             Rx   d 8 22 02 27 8E 70 E1 70 03
 9.912320 1  310             Rx   d 8 32 02 23 7B 64 A5 80 02
 10.049962 1  320             Rx   d 8 1C 00 00 0A 00 01 00 00
 10.109059 1  300             Rx   d 8 33 00 04 32 00 46 00 00
 10.109551 1  310             Rx   d 8 03 02 6F 32 BF 25 25 13
 10.110034 1  310             Rx   d 8 13 82 ED C6 8D 99 E2 09
 10.110501 1  310             Rx   d 8 23 82 24 8D 6E ED 80 03
 10.110943 1  310             Rx   d 8 33 82 24 7B 5F B1 80 02
 10.309010 1  300             Rx   d 8 34 00 04 32 00 00 00 00
 10.309624 1  310             Rx   d 8 04 02 EE 33 BE FD 94 13
 10.310165 1  310             Rx   d 8 14 82 AD C4 8D 85 A2 09
 10.310615 1  310             Rx   d 8 24 02 63 8C 6E F5 80 03
 10.311066 1  310             Rx   d 8 34 02 1F 7B 5F B5 40 02
 10.508993 1  300             Rx   d 8 35 00 04 32 00 00 00 00
 10.509730 1  310             Rx   d 8 05 82 6E 35 C1 D5 E4 11
 10.510312 1  310             Rx   d 8 15 82 E5 C2 8A 71 82 09
 10.510869 1  310             Rx   d 8 25 82 1D 8C 6B F9 50 03
 10.511319 1  310             Rx   d 8 35 02 1B 7B 59 A5 D0 02
 10.709287 1  300             Rx   d 8 36 00 05 32 00 46 00 00
 10.709861 1  310             Rx   d 8 06 02 6E 37 BE B1 F4 11
 10.710344 1  310             Rx   d 8 16 82 A9 C0 83 5D E2 08
 10.710803 1  310             Rx   d 8 26 02 E4 D7 5B 29 31 03
 10.711286 1  310             Rx   d 8 36 82 A1 8B 6B F5 30 03
 10.711761 1  310             Rx   d 8 46 82 1F 7B 58 A1 90 02
 10.909778 1  300             Rx   d 8 37 00 05 32 00 46 00 00
 10.910393 1  310             Rx   d 8 07 82 ED BE 7E 45 32 09
 10.910933 1  310             Rx   d 8 17 02 2C 38 AC 9D 84 10
 10.911474 1  310             Rx   d 8 27 02 64 D6 54 4D 41 03
 10.912023 1  310             Rx   d 8 37 02 63 89 63 21 91 03
 10.912530 1  310             Rx   d 8 47 82 9E 7A 51 B5 50 02
 11.049992 1  320             Rx   d 8 18 00 00 0A 00 01 00 00
 11.108893 1  300             Rx   d 8 38 00 05 32 00 46 00 00
 11.109425 1  310             Rx   d 8 08 02 EA 3A B0 59 24 10
 11.109917 1  310             Rx   d 8 18 02 E9 BC 83 41 12 09
 11.110351 1  310             Rx   d 8 28 82 63 D6 5E 45 41 03
 11.110801 1  310             Rx   d 8 38 02 E3 8A 65 ED B0 03
 11.111244 1  310             Rx   d 8 48 82 9F 7A 55 B1 70 02
 11.309564 1  300             Rx   d 8 39 00 05 32 00 47 00 00
 11.310162 1  310             Rx   d 8 09 02 2B 3C AC 45 F4 0F
 11.310711 1  310             Rx   d 8 19 82 6A BB 7F 35 F2 08
 11.311219 1  310             Rx   d 8 29 82 E5 D5 5D 41 51 03
 11.311661 1  310             Rx   d 8 39 02 E5 89 63 F9 F0 03
 11.312095 1  310             Rx   d 8 49 82 E2 79 4C B9 A0 02
 11.509211 1  300             Rx   d 8 3A 00 05 32 00 00 00 00
 11.510039 1  310             Rx   d 8 0A 82 69 B9 7D 29 A2 08
 11.510596 1  310             Rx   d 8 1A 82 67 3D AA 21 44 0F
 11.511087 1  310             Rx   d 8 2A 82 25 89 64 E9 90 03
 11.511538 1  310             Rx   d 8 3A 82 24 D5 5E 45 81 03
 11.511988 1  310             Rx   d 8 4A 02 1B 79 4D C5 C0 02
 11.709678 1  300             Rx   d 8 3B 00 05 32 00 46 00 00
 11.710587 1  310             Rx   d 8 0B 02 A8 3E 9A ED A3 0D
 11.711185 1  310             Rx   d 8 1B 82 24 B7 7D 11 A2 08
 11.711742 1  310             Rx   d 8 2B 02 24 D5 5E 51 81 03
 11.712258 1  310             Rx   d 8 3B 02 E3 87 64 F1 B0 03
 11.712733 1  310             Rx   d 8 4B 02 5D 78 4A A9 F0 02
 11.908702 1  300             Rx   d 8 3C 00 05 32 00 47 00 00
 11.909268 1  310             Rx   d 8 0C 02 EB 3E A0 DD 43 0E
 11.909759 1  310             Rx   d 8 1C 02 A9 B5 79 11 62 08
 11.910202 1  310             Rx   d 8 2C 02 A8 D4 5E 5D 91 03
 11.910660 1  310             Rx   d 8 3C 02 E7 86 61 F1 B0 03
 11.911144 1  310             Rx   d 8 4C 82 1F 78 4B 91 80 02
 12.049998 1  320             Rx   d 8 19 00 00 0D 00 02 00 00
 12.108759 1  300             Rx   d 8 3D 00 05 32 00 46 00 00
 12.109374 1  310             Rx   d 8 0D 82 AB 3F 9A C5 63 0D
 12.109865 1  310             Rx   d 8 1D 82 E9 B3 7A 05 42 08
 12.110307 1  310             Rx   d 8 2D 82 67 86 5F E5 E0 03
 12.110955 1  310             Rx   d 8 3D 02 61 D4 60 69 C1 03
 12.111430 1  310             Rx   d 8 4D 82 60 77 49 A5 E0 02
 12.309160 1  300             Rx   d 8 3E 00 06 32 00 47 00 00
 12.309766 1  310             Rx   d 8 0E 82 EC 3F 9B B5 53 0D
 12.310315 1  310             Rx   d 8 1E 82 6A B2 7B 01 32 08
 12.310848 1  310             Rx   d 8 2E 82 29 85 63 E5 D0 03
 12.311372 1  310             Rx   d 8 3E 02 E1 D4 67 6D D1 03
 12.311888 1  310             Rx   d 8 4E 02 1B 77 4F A1 70 02
 12.312355 1  310             Rx   d 8 5E 09 1B 36 1F A8 B0 03
 12.509307 1  300             Rx   d 8 3F 00 06 32 00 47 00 00
 12.509889 1  310             Rx   d 8 0F 02 6C B0 77 F9 41 08
 12.510421 1  310             Rx   d 8 1F 02 EB 40 9E 99 D3 0D
 12.510954 1  310             Rx   d 8 2F 82 A6 84 5F E1 00 04
 12.511503 1  310             Rx   d 8 3F 82 E1 D4 65 81 11 04
 12.512002 1  310             Rx   d 8 4F 82 DA 76 4F 91 D0 01
 12.512486 1  310             Rx   d 8 5F 82 19 5A 4C 95 50 03
 12.709085 1  300             Rx   d 8 40 00 04 32 00 46 00 00
 12.709700 1  310             Rx   d 8 00 82 6C AF 72 F1 C1 07
 12.710478 1  310             Rx   d 8 10 82 6A 41 94 89 13 0D
 12.711051 1  310             Rx   d 8 20 02 AA 83 5D 05 11 04
 12.711567 1  310             Rx   d 8 30 82 A2 D5 64 81 61 04
 12.908954 1  300             Rx   d 8 41 00 04 32 00 46 00 00
 12.909576 1  310             Rx   d 8 01 02 AC 41 9C 75 73 0D
 12.910117 1  310             Rx   d 8 11 82 2B AF 79 E9 21 08
 12.910650 1  310             Rx   d 8 21 02 6A 83 66 FD F0 03
 12.911165 1  310             Rx   d 8 31 82 9F D6 6C 79 61 04
 13.049987 1  320             Rx   d 8 1B 00 00 0D 00 02 00 00
 13.108241 1  300             Rx   d 8 42 00 04 32 00 00 00 00
 13.108822 1  310             Rx   d 8 02 02 6C 42 9C 69 03 0D
 13.109354 1  310             Rx   d 8 12 02 EC AD 7A E9 F1 07
 13.109879 1  310             Rx   d 8 22 82 28 83 69 F9 10 04
 13.110329 1  310             Rx   d 8 32 82 9D D8 6F 8D 71 04
 13.308789 1  300             Rx   d 8 43 00 03 32 00 47 00 00
 13.309379 1  310             Rx   d 8 03 02 6B AD 7B E1 01 08
 13.309919 1  310             Rx   d 8 13 02 EA 42 97 5D 53 0C
 13.310436 1  310             Rx   d 8 23 02 A7 82 6A F5 10 04
 13.508198 1  300             Rx   d 8 44 00 04 32 00 46 00 00
 13.508780 1  310             Rx   d 8 04 82 AC 43 99 49 03 0D
 13.509305 1  310             Rx   d 8 14 02 2A AD 76 DD A1 07
 13.509861 1  310             Rx   d 8 24 02 E8 81 6A 01 01 04
 13.510402 1  310             Rx   d 8 34 82 1E DC 74 9D D1 04
 13.708288 1  300             Rx   d 8 45 00 04 32 00 46 00 00
 13.708804 1  310             Rx   d 8 05 82 2C AD 79 D9 B1 07
 13.709353 1  310             Rx   d 8 15 82 EC 43 92 49 63 0C
 13.709861 1  310             Rx   d 8 25 02 68 81 6C FD 00 04
 13.710271 1  310             Rx   d 8 35 02 5B DE 79 A5 A1 04
 13.908255 1  300             Rx   d 8 46 00 04 32 00 46 00 00
 13.908845 1  310             Rx   d 8 06 02 6C 45 94 35 F3 0B
 13.909402 1  310             Rx   d 8 16 82 E8 AC 7C DD C1 07
 13.909926 1  310             Rx   d 8 26 82 25 80 6E 01 31 04
 13.910475 1  310             Rx   d 8 36 02 5B E0 7D B1 11 05
 14.049936 1  320             Rx   d 8 19 00 00 0E 00 01 00 00
 14.107853 1  300             Rx   d 8 47 00 04 32 00 46 00 00
 14.108443 1  310             Rx   d 8 07 82 6B 46 97 31 C3 0B
 14.109016 1  310             Rx   d 8 17 82 29 AD 84 D1 71 07
 14.109549 1  310             Rx   d 8 27 02 25 7F 72 09 11 04
 14.110024 1  310             Rx   d 8 37 87 A0 E2 84 C9 61 05
 14.308803 1  300             Rx   d 8 48 00 05 32 00 47 00 00
 14.309417 1  310             Rx   d 8 08 02 E8 AC 85 D5 71 07
 14.309982 1  310             Rx   d 8 18 82 E7 46 95 2D 33 0B
 14.310498 1  310             Rx   d 8 28 07 22 E5 87 E1 81 05
 14.311047 1  310             Rx   d 8 38 82 E1 06 6F D9 E0 02
 14.311719 1  310             Rx   d 8 48 02 1D 7E 70 F9 A0 03
 14.507655 1  300             Rx   d 8 49 00 04 32 00 00 00 00
 14.508180 1  310             Rx   d 8 09 82 2B 47 94 25 53 0B
 14.508671 1  310             Rx   d 8 19 02 EB AC 84 D5 61 07
 14.509138 1  310             Rx   d 8 29 87 DE E7 8C FD C1 05
 14.509580 1  310             Rx   d 8 39 02 1D 7D 72 F5 A0 03
 14.707237 1  300             Rx   d 8 4A 00 03 32 00 46 00 00
 14.707778 1  310             Rx   d 8 0A 82 EA AC 83 D1 91 07
 14.708253 1  310             Rx   d 8 1A 02 2A 47 97 25 F3 0B
 14.708703 1  310             Rx   d 8 2A 02 A0 7B 73 05 A1 03
 14.908285 1  300             Rx   d 8 4B 00 05 32 00 46 00 00
 14.909219 1  310             Rx   d 8 0B 02 6C AC 82 D5 A1 07
 14.910128 1  310             Rx   d 8 1B 82 AB 46 91 1D 73 0B
 14.911078 1  310             Rx   d 8 2B 02 26 EA 8D ED 31 06
 14.911660 1  310             Rx   d 8 3B 02 E2 79 72 01 D1 03
 14.912201 1  310             Rx   d 8 4B 02 1A BC 6B D1 70 02
 15.049999 1  320             Rx   d 8 18 00 00 0A 00 01 00 00
 15.107760 1  300             Rx   d 8 4C 00 05 32 00 00 00 00
 15.108481 1  310             Rx   d 8 0C 02 EB 45 8A 15 63 0B
 15.109202 1  310             Rx   d 8 1C 82 E9 EA 8B E1 31 06
 15.109685 1  310             Rx   d 8 2C 82 64 AC 6F C9 D1 05
 15.110152 1  310             Rx   d 8 3C 02 A2 78 6D 05 41 04
 15.110595 1  310             Rx   d 8 4C 02 DE D0 4E 19 52 06
 15.308087 1  300             Rx   d 8 4D 00 06 32 00 46 00 00
 15.308702 1  310             Rx   d 8 0D 02 29 EB 91 D1 41 06
 15.309259 1  310             Rx   d 8 1D 82 A8 45 85 25 A3 0A
 15.309775 1  310             Rx   d 8 2D 82 64 BE 70 01 B1 03
 15.310308 1  310             Rx   d 8 3D 02 64 AC 70 C5 21 05
 15.310783 1  310             Rx   d 8 4D 82 DB 76 6F FD 50 04
 15.311274 1  310             Rx   d 8 5D 82 D9 7D 45 F5 60 04
 15.508169 1  300             Rx   d 8 4E 00 06 32 00 46 00 00
 15.508775 1  310             Rx   d 8 0E 02 E9 44 9A 2D 43 0D
 15.509316 1  310             Rx   d 8 1E 82 68 AC 7D CD 21 07
 15.509856 1  310             Rx   d 8 2E 02 65 75 70 0D 81 04
 15.510315 1  310             Rx   d 8 3E 82 E0 EB 90 B5 31 05
 15.510782 1  310             Rx   d 8 4E 02 A0 7F 55 AD 60 02
 15.511249 1  310             Rx   d 8 5E 82 5F C0 72 01 B1 03
 15.707546 1  300             Rx   d 8 4F 00 06 32 00 46 00 00
 15.708160 1  310             Rx   d 8 0F 02 AC AC 80 D5 31 07
 15.708717 1  310             Rx   d 8 1F 82 A8 43 97 41 A3 0C
 15.709241 1  310             Rx   d 8 2F 82 65 74 73 11 51 04
 15.709782 1  310             Rx   d 8 3F 82 A3 C1 75 09 B1 03
 15.710241 1  310             Rx   d 8 4F 82 1D 80 56 BD 50 02
 15.710691 1  310             Rx   d 8 5F 02 59 E9 8E 35 C1 04
 15.908020 1  300             Rx   d 8 50 00 05 32 00 46 00 00
 15.908643 1  310             Rx   d 8 00 02 6C 42 97 4D 33 0D
 15.909184 1  310             Rx   d 8 10 02 EB AC 7F C5 41 07
 15.909700 1  310             Rx   d 8 20 82 A8 73 6E 15 91 04
 15.910224 1  310             Rx   d 8 30 02 27 C3 71 1D A1 03
 15.910675 1  310             Rx   d 8 40 02 DB 82 51 91 20 02
 16.049881 1  320             Rx   d 8 1C 00 00 0A 00 02 00 00
 16.108331 1  300             Rx   d 8 51 00 07 32 00 47 00 00
 16.108946 1  310             Rx   d 8 01 82 2C 40 95 4D 73 0D
 16.109511 1  310             Rx   d 8 11 82 EA C4 6F 29 91 03
 16.110027 1  310             Rx   d 8 21 82 27 72 6B 11 61 04
 16.110486 1  310             Rx   d 8 31 02 27 AD 81 C5 81 07
 16.110985 1  310             Rx   d 8 41 82 DB 83 49 95 80 02
 16.111436 1  310             Rx   d 8 51 02 5B ED 97 81 A1 06
 16.111895 1  310             Rx   d 8 61 87 1A EC 49 C1 F1 07
 16.308322 1  300             Rx   d 8 52 00 07 32 00 00 00 00
 16.308929 1  310             Rx   d 8 02 02 AC AD 80 C1 71 07
 16.309478 1  310             Rx   d 8 12 02 6A C5 71 49 A1 03
 16.310051 1  310             Rx   d 8 22 82 A9 3D 96 59 A3 0D
 16.310420 1  310             Rx   d 8 32 82 27 71 6C 21 91 04
 16.310887 1  310             Rx   d 8 42 02 9D 84 4C 8D 20 02
 16.311329 1  310             Rx   d 8 52 02 5C ED 98 8D A1 06
 16.311779 1  310             Rx   d 8 62 02 5A 53 2C 8D 42 09
 16.508035 1  300             Rx   d 8 53 00 07 32 00 47 00 00
 16.508568 1  310             Rx   d 8 03 02 6C AE 82 C9 81 07
 16.509059 1  310             Rx   d 8 13 82 68 C8 6F 45 01 04
 16.509608 1  310             Rx   d 8 23 82 E7 3A 96 89 D3 0D
 16.510050 1  310             Rx   d 8 33 02 67 70 6B 15 A1 04
 16.510525 1  310             Rx   d 8 43 02 27 EE 9C 81 41 07
 16.511001 1  310             Rx   d 8 53 82 1D D0 3F 25 D1 05
 16.511443 1  310             Rx   d 8 63 02 5A 85 48 91 50 02
 16.708354 1  300             Rx   d 8 54 00 08 32 00 47 00 00
 16.708952 1  310             Rx   d 8 04 82 2D AF 83 D1 A1 07
 16.709501 1  310             Rx   d 8 14 02 2B 39 99 95 D3 0D
 16.710050 1  310             Rx   d 8 24 02 68 CB 76 4D F1 03
 16.710533 1  310             Rx   d 8 34 82 A7 EE A0 61 11 07
 16.710992 1  310             Rx   d 8 44 82 26 70 6F 21 01 05
 16.711442 1  310             Rx   d 8 54 02 E1 10 7B 19 F2 08
 16.711893 1  310             Rx   d 8 64 82 20 87 4A 8D 10 02
 16.712262 1  310             Rx   d 8 74 02 1D 51 34 D9 B2 08
 16.907977 1  300             Rx   d 8 55 00 07 32 00 47 00 00
 16.908493 1  310             Rx   d 8 05 02 EE AF 81 C5 A1 07
 16.908993 1  310             Rx   d 8 15 82 6C 35 99 B1 E3 0D
 16.909435 1  310             Rx   d 8 25 02 A8 6F 6E 29 91 04
 16.910008 1  310             Rx   d 8 35 02 68 EF 9F 51 01 08
 16.910533 1  310             Rx   d 8 45 82 67 CD 74 55 21 04
 16.911032 1  310             Rx   d 8 55 82 DF 87 47 85 10 02
 16.911549 1  310             Rx   d 8 65 02 1F 7F 2E 69 A0 01
 17.050026 1  320             Rx   d 8 1D 00 00 0B 00 02 00 00
 17.107346 1  300             Rx   d 8 56 00 07 32 00 47 00 00
 17.107935 1  310             Rx   d 8 06 82 6E B0 7A C9 B1 07
 17.108468 1  310             Rx   d 8 16 02 2D 32 97 E1 53 0E
 17.109017 1  310             Rx   d 8 26 02 AB EF A6 4D 31 09
 17.109467 1  310             Rx   d 8 36 02 AB CF 6D 69 61 04
 17.109926 1  310             Rx   d 8 46 02 E5 6E 66 19 91 04
 17.110368 1  310             Rx   d 8 56 02 E0 88 3E 81 40 02
 17.110843 1  310             Rx   d 8 66 05 5E DB 3B 61 82 07
 17.307992 1  300             Rx   d 8 57 00 06 32 00 47 00 00
 17.308598 1  310             Rx   d 8 07 02 2C 2D 91 F1 A3 0E
 17.309090 1  310             Rx   d 8 17 02 AB B0 71 C1 A1 07
 17.309491 1  310             Rx   d 8 27 02 69 D1 69 69 81 04
 17.309958 1  310             Rx   d 8 37 02 68 EF 9B 51 71 08
 17.310409 1  310             Rx   d 8 47 82 A3 6E 62 2D B1 04
 17.310868 1  310             Rx   d 8 57 02 1B 89 39 85 30 02
 17.507181 1  300             Rx   d 8 58 00 08 32 00 47 00 00
 17.507959 1  310             Rx   d 8 08 82 ED B0 78 BD 61 07
 17.508713 1  310             Rx   d 8 18 82 2C 28 9E 39 C4 0F
 17.509458 1  310             Rx   d 8 28 82 6B D3 70 79 C1 04
 17.509933 1  310             Rx   d 8 38 02 EA EE A5 5D D1 08
 17.510408 1  310             Rx   d 8 48 02 26 6D 68 31 81 04
 17.510892 1  310             Rx   d 8 58 82 60 89 3E 85 30 02
 17.511342 1  310             Rx   d 8 68 82 DA E6 3D 5D 82 08
 17.511776 1  310             Rx   d 8 78 82 DA C3 40 29 D1 01
 17.707254 1  300             Rx   d 8 59 00 08 32 00 00 00 00
 17.707811 1  310             Rx   d 8 09 02 6D B1 79 C1 91 07
 17.708294 1  310             Rx   d 8 19 82 6B 23 9F 65 34 10
 17.708745 1  310             Rx   d 8 29 02 6A D5 70 7D 71 04
 17.709195 1  310             Rx   d 8 39 02 A8 EE A9 69 31 09
 17.709646 1  310             Rx   d 8 49 02 A6 6C 66 35 B1 04
 17.710088 1  310             Rx   d 8 59 82 A1 89 3E 89 20 02
 17.710522 1  310             Rx   d 8 69 02 1E E9 3F 1D D2 07
 17.710973 1  310             Rx   d 8 79 02 9D C5 41 21 F1 01
 17.908081 1  300             Rx   d 8 5A 00 09 32 00 47 00 00
 17.908884 1  310             Rx   d 8 0A 82 EB 20 94 11 34 0F
 17.909662 1  310             Rx   d 8 1A 02 EB B1 75 BD E1 07
 17.910161 1  310             Rx   d 8 2A 02 2A EE A1 7D 81 08
 17.910612 1  310             Rx   d 8 3A 82 28 D8 71 91 91 04
 17.911071 1  310             Rx   d 8 4A 82 E0 C6 41 11 E1 01
 17.911521 1  310             Rx   d 8 5A 82 60 6C 65 35 F1 04
 17.911972 1  310             Rx   d 8 6A 82 9D 89 3E 91 20 02
 17.912406 1  310             Rx   d 8 7A 02 1A ED 44 9D A1 09
 18.050007 1  320             Rx   d 8 18 00 00 0B 00 02 00 00
 18.107523 1  300             Rx   d 8 5B 00 07 32 00 47 00 00
 18.108301 1  310             Rx   d 8 0B 82 AB 1E 8E D1 D3 0F
 18.109104 1  310             Rx   d 8 1B 82 2B B2 71 BD 91 07
 18.109842 1  310             Rx   d 8 2B 02 A9 6B 63 39 11 05
 18.110358 1  310             Rx   d 8 3B 02 A7 DA 70 A1 91 04
 18.110849 1  310             Rx   d 8 4B 02 27 ED AD 9D 01 0A
 18.111291 1  310             Rx   d 8 5B 82 21 C8 3F 09 E1 01
 18.111775 1  310             Rx   d 8 6B 82 E0 89 3E 81 10 02
 18.308104 1  300             Rx   d 8 5C 00 08 32 00 47 00 00
 18.308899 1  310             Rx   d 8 0C 82 6C B2 7A BD 81 07
 18.309653 1  310             Rx   d 8 1C 02 AA 1C 97 95 53 11
 18.310374 1  310             Rx   d 8 2C 02 AA EC B5 B1 11 0A
 18.310857 1  310             Rx   d 8 3C 82 A9 DC 79 8D C1 04
 18.311340 1  310             Rx   d 8 4C 02 A7 6A 68 49 F1 04
 18.311791 1  310             Rx   d 8 5C 02 23 8A 43 7D E0 01
 18.312299 1  310             Rx   d 8 6C 02 21 CA 49 F5 50 02
 18.312774 1  310             Rx   d 8 7C 82 DB 5C 4F ED 50 02
 18.507612 1  300             Rx   d 8 5D 00 07 32 00 47 00 00
 18.508399 1  310             Rx   d 8 0D 82 2C DF 81 8D F1 04
 18.509202 1  310             Rx   d 8 1D 82 2C B3 7D B5 91 07
 18.509718 1  310             Rx   d 8 2D 02 6C 19 9F 25 B3 11
 18.510193 1  310             Rx   d 8 3D 02 EB EB B7 C1 D1 09
 18.510627 1  310             Rx   d 8 4D 82 67 6A 6D 4D 21 05
 18.511094 1  310             Rx   d 8 5D 82 22 CC 4E 0D 51 02
 18.511528 1  310             Rx   d 8 6D 02 1F 8A 48 85 00 02
 18.707513 1  300             Rx   d 8 5E 00 07 32 00 47 00 00
 18.708079 1  310             Rx   d 8 0E 02 AD B3 79 C1 41 07
 18.708570 1  310             Rx   d 8 1E 02 AC 16 AA C9 F2 11
 18.709029 1  310             Rx   d 8 2E 02 AA E1 7F 91 D1 04
 18.709488 1  310             Rx   d 8 3E 02 A9 69 6C 59 31 05
 18.709955 1  310             Rx   d 8 4E 82 A4 CE 4E 11 91 02
 18.710397 1  310             Rx   d 8 5E 02 24 EB BB DD 71 0A
 18.710856 1  310             Rx   d 8 6E 02 DB 89 49 81 10 02
 18.906702 1  300             Rx   d 8 5F 00 07 32 00 00 00 00
 18.907210 1  310             Rx   d 8 0F 02 2C B4 74 C5 31 07
 18.907718 1  310             Rx   d 8 1F 02 AC 13 A5 71 62 13
 18.908160 1  310             Rx   d 8 2F 82 27 69 68 59 21 05
 18.908578 1  310             Rx   d 8 3F 02 A5 E3 7A 6D 61 04
 18.909012 1  310             Rx   d 8 4F 02 23 D0 49 19 51 02
 18.909438 1  310             Rx   d 8 5F 82 E2 E9 B5 01 E2 0A
 18.909856 1  310             Rx   d 8 6F 82 DA 89 44 7D D0 01
 19.050169 1  320             Rx   d 8 1D 00 00 0C 00 02 00 00
 19.107168 1  300             Rx   d 8 60 00 06 32 00 47 00 00
 19.107807 1  310             Rx   d 8 00 02 6D B4 71 BD F1 06
 19.108364 1  310             Rx   d 8 10 02 AB E9 B8 11 A2 0C
 19.108922 1  310             Rx   d 8 20 02 2A 10 92 05 D2 11
 19.109446 1  310             Rx   d 8 30 82 28 68 64 5D 41 05
 19.109970 1  310             Rx   d 8 40 82 E3 D2 48 0D 71 02
 19.110420 1  310             Rx   d 8 50 82 DD 89 46 75 20 02
 19.306955 1  300             Rx   d 8 61 00 06 32 00 47 00 00
 19.307430 1  310             Rx   d 8 01 82 6D E9 C1 19 62 0D
 19.307897 1  310             Rx   d 8 11 02 EC B5 76 BD 31 07
 19.308462 1  310             Rx   d 8 21 02 6B 0C 98 89 21 11
 19.309027 1  310             Rx   d 8 31 02 E5 D5 51 25 B1 02
 19.309494 1  310             Rx   d 8 41 82 A1 67 67 69 31 05
 19.309945 1  310             Rx   d 8 51 02 5C 8A 49 85 30 02
 19.506938 1  300             Rx   d 8 62 00 07 32 00 47 00 00
 19.507503 1  310             Rx   d 8 02 82 EC B6 7D B5 31 07
 19.507978 1  310             Rx   d 8 12 82 A8 D8 5C 29 D1 02
 19.508453 1  310             Rx   d 8 22 02 68 E9 CA 15 12 0D
 19.508830 1  310             Rx   d 8 32 02 26 67 6D 75 41 05
 19.509314 1  310             Rx   d 8 42 02 DD 8A 51 81 E0 01
 19.509838 1  310             Rx   d 8 52 82 DA 08 9F 15 01 12
 19.510379 1  310             Rx   d 8 62 02 99 9B 50 81 80 01
 19.706323 1  300             Rx   d 8 63 00 04 32 00 46 00 00
 19.706847 1  310             Rx   d 8 03 82 6D B8 7B BD 51 07
 19.707388 1  310             Rx   d 8 13 82 AC E9 CE 0D E2 0D
 19.707945 1  310             Rx   d 8 23 02 A9 66 6D 75 51 05
 19.708461 1  310             Rx   d 8 33 82 A7 DB 5E 35 21 03
 19.905684 1  300             Rx   d 8 64 00 06 32 00 46 00 00
 19.906159 1  310             Rx   d 8 04 02 AD B9 7B B1 21 07
 19.906617 1  310             Rx   d 8 14 02 EC E9 D6 09 72 0E
 19.907199 1  310             Rx   d 8 24 82 28 66 6C 7D 71 05
 19.907617 1  310             Rx   d 8 34 02 E6 DE 5F 4D 11 03
 19.908158 1  310             Rx   d 8 44 02 DD 8A 52 8D 90 01
 19.908616 1  310             Rx   d 8 54 82 1C 9C 51 91 90 01
 20.050117 1  320             Rx   d 8 1D 00 00 0D 00 02 00 00
 20.106560 1  300             Rx   d 8 65 00 05 32 00 46 00 00
 20.107330 1  310             Rx   d 8 05 82 AA BB 75 B9 E1 06
 20.107837 1  310             Rx   d 8 15 82 2A EA C7 FD 31 0D
 20.108378 1  310             Rx   d 8 25 02 E5 E2 5E 61 21 03
 20.108878 1  310             Rx   d 8 35 02 65 65 6B 85 11 06
 20.109419 1  310             Rx   d 8 45 82 59 8B 4E 95 C0 01
 20.306494 1  300             Rx   d 8 66 00 05 32 00 46 00 00
 20.307182 1  310             Rx   d 8 06 02 6C BD 6F B9 31 07
 20.307714 1  310             Rx   d 8 16 02 6C EA C4 F9 11 0D
 20.308239 1  310             Rx   d 8 26 82 A7 E6 5F 6D 71 03
 20.308754 1  310             Rx   d 8 36 02 21 65 65 91 B1 05
 20.309230 1  310             Rx   d 8 46 82 59 92 4D 81 90 01
 20.506436 1  300             Rx   d 8 67 00 05 32 00 46 00 00
 20.507157 1  310             Rx   d 8 07 02 EC BE 6F C1 11 07
 20.507935 1  310             Rx   d 8 17 02 6B EA C6 F1 61 0D
 20.508525 1  310             Rx   d 8 27 82 E6 E8 63 4D C1 03
 20.509000 1  310             Rx   d 8 37 82 E3 64 68 9D C1 05
 20.509483 1  310             Rx   d 8 47 82 19 9E 53 9D 60 01
 20.706280 1  300             Rx   d 8 68 00 07 32 00 46 00 00
 20.707107 1  310             Rx   d 8 08 02 2D EA CC F1 F1 0D
 20.707795 1  310             Rx   d 8 18 02 E9 C0 73 BD F1 06
 20.708369 1  310             Rx   d 8 28 82 E4 64 6C A1 F1 05
 20.708901 1  310             Rx   d 8 38 82 5F 9E 57 9D 70 01
 20.709450 1  310             Rx   d 8 48 82 99 8C 57 81 90 01
 20.709892 1  310             Rx   d 8 58 02 99 E9 6A 19 B1 03
 20.710343 1  310             Rx   d 8 68 02 99 93 54 89 80 01
 20.905992 1  300             Rx   d 8 69 00 04 32 00 46 00 00
 20.906975 1  310             Rx   d 8 09 82 AA E9 CD 01 52 0E
 20.907909 1  310             Rx   d 8 19 02 AA C2 72 CD 01 07
 20.908638 1  310             Rx   d 8 29 82 E5 64 6D AD 01 06
 20.909187 1  310             Rx   d 8 39 82 9D 9E 5A B1 B0 01
 21.050196 1  320             Rx   d 8 1C 00 00 0D 00 02 00 00
 21.106148 1  300             Rx   d 8 6A 00 05 32 00 46 00 00
 21.106983 1  310             Rx   d 8 0A 82 EB E8 CF 25 F2 0F
 21.107679 1  310             Rx   d 8 1A 82 6B C4 6F C5 F1 06
 21.108253 1  310             Rx   d 8 2A 82 23 65 6B AD 41 06
 21.108769 1  310             Rx   d 8 3A 02 60 A0 59 CD B0 01
 21.109228 1  310             Rx   d 8 4A 82 1A 95 55 91 90 01
 21.305860 1  300             Rx   d 8 6B 00 05 32 00 46 00 00
 21.306483 1  310             Rx   d 8 0B 02 EE E7 DF 45 32 11
 21.307015 1  310             Rx   d 8 1B 02 EC C5 72 D1 A1 06
 21.307474 1  310             Rx   d 8 2B 02 61 65 6F A5 11 06
 21.307875 1  310             Rx   d 8 3B 02 E0 95 5D 8D 80 01
 21.308252 1  310             Rx   d 8 4B 82 9A A0 5D B1 A0 01
 21.504795 1  300             Rx   d 8 6C 00 04 32 00 46 00 00
 21.505327 1  310             Rx   d 8 0C 82 ED E6 DE 65 02 11
 21.505720 1  310             Rx   d 8 1C 02 AB C7 77 BD B1 06
 21.506269 1  310             Rx   d 8 2C 02 9A 96 60 A1 C0 01
 21.506671 1  310             Rx   d 8 3C 02 99 66 76 B1 71 06
 21.705335 1  300             Rx   d 8 6D 00 05 32 00 46 00 00
 21.705843 1  310             Rx   d 8 0D 82 6C E5 DB 95 22 10
 21.706301 1  310             Rx   d 8 1D 82 28 CA 7D ED 81 06
 21.706760 1  310             Rx   d 8 2D 02 E2 67 7B A5 31 06
 21.707235 1  310             Rx   d 8 3D 02 5D 98 64 8D B0 01
 21.707711 1  310             Rx   d 8 4D 82 5A A3 66 B5 90 01
 21.905867 1  300             Rx   d 8 6E 00 05 32 00 46 00 00
 21.906670 1  310             Rx   d 8 0E 02 6D E3 DC D5 F2 0F
 21.907259 1  310             Rx   d 8 1E 82 69 CA 83 BD 31 06
 21.907808 1  310             Rx   d 8 2E 02 60 69 7E AD 11 06
 21.908283 1  310             Rx   d 8 3E 02 DE 98 68 99 D0 01
 21.908726 1  310             Rx   d 8 4E 82 9B A3 6A B5 A0 01
 22.050153 1  320             Rx   d 8 1B 00 00 0D 00 02 00 00
 22.105080 1  300             Rx   d 8 6F 00 05 32 00 46 00 00
 22.105686 1  310             Rx   d 8 0F 82 AD E0 CC 25 93 0E
 22.106227 1  310             Rx   d 8 1F 02 A8 CA 7E 7D F1 05
 22.106751 1  310             Rx   d 8 2F 82 9E 6B 7A A1 D1 05
 22.107218 1  310             Rx   d 8 3F 02 DC 9A 65 9D B0 01
 22.107710 1  310             Rx   d 8 4F 02 DA A4 68 95 70 01
 22.306161 1  300             Rx   d 8 70 00 07 32 00 47 00 00
 22.306783 1  310             Rx   d 8 00 02 2D DE C2 79 E3 0C
 22.307275 1  310             Rx   d 8 10 82 25 6E 7D 9D D1 05
 22.307725 1  310             Rx   d 8 20 02 E3 0B F3 79 E1 18
 22.308168 1  310             Rx   d 8 30 82 1E CA 80 65 71 05
 22.308651 1  310             Rx   d 8 40 82 DC A6 6B BD A0 01
 22.309102 1  310             Rx   d 8 50 02 5C 9C 69 91 D0 01
 22.309577 1  310             Rx   d 8 60 82 59 93 6C 7D E0 01
 22.505210 1  300             Rx   d 8 71 00 07 32 00 00 00 00
 22.505964 1  310             Rx   d 8 01 02 2D DC C8 B9 53 0D
 22.506660 1  310             Rx   d 8 11 02 6B 10 D7 0D 32 1A
 22.507184 1  310             Rx   d 8 21 02 29 70 7E 8D C1 05
 22.507643 1  310             Rx   d 8 31 82 9A 9C 6B 89 00 02
 22.508102 1  310             Rx   d 8 41 02 DA A6 6D A5 B0 01
 22.508577 1  310             Rx   d 8 51 82 D9 7D 67 C9 00 02
 22.509093 1  310             Rx   d 8 61 02 99 87 6A 75 D0 01
 22.705332 1  300             Rx   d 8 72 00 04 32 00 46 00 00
 22.705881 1  310             Rx   d 8 02 02 2F D7 BD B1 53 0C
 22.706422 1  310             Rx   d 8 12 82 E3 71 81 81 71 05
 22.706872 1  310             Rx   d 8 22 02 E2 14 E8 9D 52 20
 22.707331 1  310             Rx   d 8 32 02 1E 9E 6E 99 E0 01
 22.905422 1  300             Rx   d 8 73 00 06 32 00 46 00 00
 22.906323 1  310             Rx   d 8 03 82 EE D1 BF 69 73 0B
 22.907249 1  310             Rx   d 8 13 02 66 75 7F 8D C1 05
 22.907822 1  310             Rx   d 8 23 82 A0 9F 6D 95 E0 01
 22.908371 1  310             Rx   d 8 33 02 DC 96 6F 75 E0 01
 22.908789 1  310             Rx   d 8 43 02 DB 19 2F 3A C3 29
 22.909239 1  310             Rx   d 8 53 02 19 AA 70 91 A0 01
 23.050191 1  320             Rx   d 8 1B 00 00 0A 00 02 00 00
 23.105495 1  300             Rx   d 8 74 00 06 32 00 46 00 00
 23.106126 1  310             Rx   d 8 04 02 6F CD BD 1D 13 0B
 23.106667 1  310             Rx   d 8 14 82 2B 1E E9 C1 73 1F
 23.107199 1  310             Rx   d 8 24 82 E2 E6 76 95 90 02
 23.107740 1  310             Rx   d 8 34 02 62 78 83 75 81 05
 23.108190 1  310             Rx   d 8 44 02 9D A0 71 A5 F0 01
 23.108665 1  310             Rx   d 8 54 02 9B 97 70 7D 40 02
 23.305437 1  300             Rx   d 8 75 00 06 32 00 47 00 00
 23.305978 1  310             Rx   d 8 05 82 EE 21 FC 3D 84 22
 23.306502 1  310             Rx   d 8 15 02 AE C9 B9 E5 62 0A
 23.307027 1  310             Rx   d 8 25 82 E5 7A 81 69 51 05
 23.307477 1  310             Rx   d 8 35 82 E4 EB 77 A5 90 02
 23.307936 1  310             Rx   d 8 45 82 5C 99 71 89 10 02
 23.308427 1  310             Rx   d 8 55 02 DC A3 72 A9 00 02
 23.505486 1  300             Rx   d 8 76 00 08 32 00 46 00 00
 23.506256 1  310             Rx   d 8 06 82 EE 25 EE B5 B4 1F
 23.506960 1  310             Rx   d 8 16 02 6E C6 AF D1 D2 09
 23.507477 1  310             Rx   d 8 26 02 E2 EF 75 AD 80 02
 23.507944 1  310             Rx   d 8 36 82 20 7D 79 69 51 05
 23.508435 1  310             Rx   d 8 46 02 20 9A 6C 8D F0 01
 23.508910 1  310             Rx   d 8 56 02 1F A4 6B B9 10 02
 23.509377 1  310             Rx   d 8 66 82 5D AF 6F 91 E0 01
 23.509820 1  310             Rx   d 8 76 82 59 8D 69 91 E0 01
 23.704871 1  300             Rx   d 8 77 00 08 32 00 47 00 00
 23.705453 1  310             Rx   d 8 07 02 AF 29 E6 2D B5 1D
 23.705911 1  310             Rx   d 8 17 82 2D C3 A8 91 32 09
 23.706452 1  310             Rx   d 8 27 82 28 F4 72 B1 E0 02
 23.706927 1  310             Rx   d 8 37 82 64 D5 80 21 01 05
 23.707370 1  310             Rx   d 8 47 82 E4 7E 77 59 41 05
 23.707771 1  310             Rx   d 8 57 82 A1 A5 6A 8D 20 02
 23.708221 1  310             Rx   d 8 67 82 E0 9A 6A 8D F0 01
 23.708623 1  310             Rx   d 8 77 82 1E 8E 68 95 B0 01
 23.905427 1  300             Rx   d 8 78 00 08 32 00 47 00 00
 23.906181 1  310             Rx   d 8 08 02 F0 2C E2 95 C5 1C
 23.906886 1  310             Rx   d 8 18 02 EE BF A5 6D 62 08
 23.907394 1  310             Rx   d 8 28 02 A8 D4 82 2D 11 05
 23.907844 1  310             Rx   d 8 38 82 E7 7F 79 59 51 05
 23.908287 1  310             Rx   d 8 48 02 E3 A5 6E B9 20 02
 23.908745 1  310             Rx   d 8 58 82 22 9B 6E 95 20 02
 23.909196 1  310             Rx   d 8 68 82 60 F6 74 6D F0 02
 23.909663 1  310             Rx   d 8 78 82 59 8E 68 89 D0 01
 24.050164 1  320             Rx   d 8 1E 00 00 0B 00 02 00 00
 24.105386 1  300             Rx   d 8 79 00 07 32 00 46 00 00
 24.106246 1  310             Rx   d 8 09 02 6F 2F D7 E5 F5 1A
 24.106967 1  310             Rx   d 8 19 82 AE BD A1 55 42 08
 24.107721 1  310             Rx   d 8 29 82 25 D4 7F 41 31 05
 24.108466 1  310             Rx   d 8 39 82 24 81 77 51 41 05
 24.108966 1  310             Rx   d 8 49 82 60 9C 6D A9 40 02
 24.109441 1  310             Rx   d 8 59 02 A0 8E 67 89 00 02
 24.109908 1  310             Rx   d 8 69 02 E0 A6 6C A5 00 02
 24.304722 1  300             Rx   d 8 7A 00 08 32 00 47 00 00
 24.305246 1  310             Rx   d 8 0A 02 6F 32 C4 45 96 18
 24.305631 1  310             Rx   d 8 1A 02 ED BB 9E 41 32 08
 24.306041 1  310             Rx   d 8 2A 02 66 D3 7F 55 D1 04
 24.306459 1  310             Rx   d 8 3A 02 E3 81 77 55 41 05
 24.306844 1  310             Rx   d 8 4A 82 E2 9B 6D 99 00 02
 24.307221 1  310             Rx   d 8 5A 02 5F A7 6E 9D 20 02
 24.307622 1  310             Rx   d 8 6A 82 9C 8E 67 85 F0 01
 24.308105 1  310             Rx   d 8 7A 82 5B 63 6D 29 31 03
 24.504467 1  300             Rx   d 8 7B 00 08 32 00 47 00 00
 24.505008 1  310             Rx   d 8 0B 82 EF 34 D0 99 06 1A
 24.505574 1  310             Rx   d 8 1B 82 EC B9 9C 21 62 07
 24.506049 1  310             Rx   d 8 2B 02 68 D3 84 49 D1 04
 24.506581 1  310             Rx   d 8 3B 02 E2 A6 72 B1 50 02
 24.507097 1  310             Rx   d 8 4B 82 E1 9C 71 9D 50 02
 24.507630 1  310             Rx   d 8 5B 02 21 83 7C 3D 11 05
 24.508113 1  310             Rx   d 8 6B 82 1F 64 6E D5 10 03
 24.508498 1  310             Rx   d 8 7B 82 19 8F 6B 81 00 02
 24.704860 1  300             Rx   d 8 7C 00 07 32 00 47 00 00
 24.705467 1  310             Rx   d 8 0C 82 EF 36 D1 DD 46 19
 24.706007 1  310             Rx   d 8 1C 02 6D B8 9C 05 72 07
 24.706572 1  310             Rx   d 8 2C 02 27 D3 82 45 E1 04
 24.707031 1  310             Rx   d 8 3C 82 24 84 7C 3D 21 05
 24.707490 1  310             Rx   d 8 4C 02 E3 9C 71 9D 30 02
 24.707973 1  310             Rx   d 8 5C 02 1F A6 74 B9 60 02
 24.708416 1  310             Rx   d 8 6C 02 9C F6 9C 6D 70 03
 24.904974 1  300             Rx   d 8 7D 00 06 32 00 47 00 00
 24.905761 1  310             Rx   d 8 0D 82 2F 3C D2 E5 D6 18
 24.906539 1  310             Rx   d 8 1D 82 AA B7 99 F1 51 07
 24.907113 1  310             Rx   d 8 2D 02 68 85 7C 3D E1 04
 24.907579 1  310             Rx   d 8 3D 82 E7 D2 81 45 D1 04
 24.908022 1  310             Rx   d 8 4D 02 65 9D 70 A1 40 02
 24.908481 1  310             Rx   d 8 5D 02 19 91 6C 79 10 02
 25.050079 1  320             Rx   d 8 1B 00 00 0B 00 02 00 00
 25.105023 1  300             Rx   d 8 7E 00 07 32 00 47 00 00
 25.105646 1  310             Rx   d 8 0E 02 B0 42 D3 95 C6 18
 25.106145 1  310             Rx   d 8 1E 82 AB B6 98 E1 F1 06
 25.106702 1  310             Rx   d 8 2E 02 2B 86 7F 3D 01 05
 25.107153 1  310             Rx   d 8 3E 02 68 D2 82 51 C1 04
 25.107628 1  310             Rx   d 8 4E 82 E2 9D 71 AD 50 02
 25.108095 1  310             Rx   d 8 5E 02 5E F5 8D 91 30 05
 25.108537 1  310             Rx   d 8 6E 02 99 7A 70 AD 10 03
 25.304195 1  300             Rx   d 8 7F 00 07 32 00 47 00 00
 25.304752 1  310             Rx   d 8 0F 02 30 4A C7 31 06 17
 25.305211 1  310             Rx   d 8 1F 82 AB B6 90 C5 F1 06
 25.305661 1  310             Rx   d 8 2F 82 E9 D2 7B 45 C1 04
 25.306137 1  310             Rx   d 8 3F 82 26 87 81 39 71 04
 25.306612 1  310             Rx   d 8 4F 82 A0 F4 8C A9 60 04
 25.307062 1  310             Rx   d 8 5F 02 1C 7B 66 E5 30 03
 25.307529 1  310             Rx   d 8 6F 02 DC 9D 6D 99 D0 01
 25.504465 1  300             Rx   d 8 80 00 06 32 00 47 00 00
 25.505088 1  310             Rx   d 8 00 02 F0 50 CC ED 55 16
 25.505604 1  310             Rx   d 8 10 82 AC B5 95 D5 C1 06
 25.506104 1  310             Rx   d 8 20 82 E7 D2 84 49 81 04
 25.506578 1  310             Rx   d 8 30 02 5F 88 8F 35 E1 03
 25.507054 1  310             Rx   d 8 40 82 9D 9E 71 AD 40 02
 25.507529 1  310             Rx   d 8 50 02 1C F4 92 B9 90 04
 25.704022 1  300             Rx   d 8 81 00 06 32 00 47 00 00
 25.704555 1  310             Rx   d 8 01 82 30 56 CE 9D 35 16
 25.705030 1  310             Rx   d 8 11 02 EC B5 95 C1 C1 06
 25.705505 1  310             Rx   d 8 21 82 2A D3 81 49 81 04
 25.705988 1  310             Rx   d 8 31 82 24 F4 8F C5 80 04
 25.706431 1  310             Rx   d 8 41 02 23 8A 84 21 F1 04
 25.706865 1  310             Rx   d 8 51 02 21 A0 70 C1 A0 02
 25.904325 1  300             Rx   d 8 82 00 07 32 00 47 00 00
 25.904939 1  310             Rx   d 8 02 02 F0 5B CA 59 95 15
 25.905488 1  310             Rx   d 8 12 82 EB B5 96 BD C1 06
 25.906045 1  310             Rx   d 8 22 82 6A D3 80 49 71 04
 25.906504 1  310             Rx   d 8 32 02 65 F3 8F D1 60 04
 25.906971 1  310             Rx   d 8 42 82 60 1F 63 C1 E2 03
 25.907421 1  310             Rx   d 8 52 82 60 A0 71 B9 50 02
 25.907872 1  310             Rx   d 8 62 02 A0 8A 83 49 01 05
 26.049970 1  320             Rx   d 8 18 00 00 0B 00 02 00 00
 26.103923 1  300             Rx   d 8 83 00 06 32 00 47 00 00
 26.104545 1  310             Rx   d 8 03 82 EF 60 CB 19 05 15
 26.105086 1  310             Rx   d 8 13 82 2A B6 96 B1 A1 06
 26.105618 1  310             Rx   d 8 23 02 E7 D3 84 3D 41 04
 26.106127 1  310             Rx   d 8 33 82 64 A1 74 D5 B0 02
 26.106593 1  310             Rx   d 8 43 82 A3 8C 85 15 11 05
 26.107044 1  310             Rx   d 8 53 02 23 F3 91 DD 90 04
 26.304324 1  300             Rx   d 8 84 00 06 32 00 47 00 00
 26.304848 1  310             Rx   d 8 04 82 EF 65 CB E5 34 15
 26.305315 1  310             Rx   d 8 14 82 6B B6 97 B9 C1 06
 26.305757 1  310             Rx   d 8 24 82 A6 D3 82 45 41 04
 26.306216 1  310             Rx   d 8 34 82 A3 A0 79 B1 20 02
 26.306667 1  310             Rx   d 8 44 82 E3 8E 84 F9 E0 04
 26.307109 1  310             Rx   d 8 54 82 A1 F2 94 ED 70 04
 26.503692 1  300             Rx   d 8 85 00 06 32 00 47 00 00
 26.504307 1  310             Rx   d 8 05 82 6E 6A C9 B9 F4 14
 26.504807 1  310             Rx   d 8 15 82 2B B6 96 BD 61 06
 26.505331 1  310             Rx   d 8 25 02 67 F2 93 ED 70 04
 26.505831 1  310             Rx   d 8 35 82 A5 D3 82 49 21 04
 26.506297 1  310             Rx   d 8 45 02 E4 A0 7A AD 50 02
 26.506756 1  310             Rx   d 8 55 02 5E 90 87 DD 60 05
 26.704232 1  300             Rx   d 8 86 00 05 32 00 47 00 00
 26.705035 1  310             Rx   d 8 06 02 AE 6F CF D5 74 14
 26.705724 1  310             Rx   d 8 16 02 6C B6 99 C1 31 06
 26.706231 1  310             Rx   d 8 26 82 66 D4 84 39 11 04
 26.706682 1  310             Rx   d 8 36 82 E5 A1 7D B9 80 02
 26.707124 1  310             Rx   d 8 46 82 A3 F2 94 ED A0 04
 26.903700 1  300             Rx   d 8 87 00 06 32 00 47 00 00
 26.904306 1  310             Rx   d 8 07 02 6F 71 C4 8D 04 14
 26.904855 1  310             Rx   d 8 17 02 AD B6 94 BD 71 06
 26.905387 1  310             Rx   d 8 27 02 E7 F1 90 01 71 04
 26.905854 1  310             Rx   d 8 37 82 E5 D3 7F 65 D1 03
 26.906329 1  310             Rx   d 8 47 02 E2 A2 77 C5 70 02
 26.906780 1  310             Rx   d 8 57 82 1A 95 72 B9 E0 02
 27.049959 1  320             Rx   d 8 16 00 00 0D 00 02 00 00
 27.103847 1  300             Rx   d 8 88 00 05 32 00 46 00 00
 27.104682 1  310             Rx   d 8 08 02 EF 73 CE 71 F4 13
 27.105624 1  310             Rx   d 8 18 02 AD B6 98 B1 81 06
 27.106427 1  310             Rx   d 8 28 02 67 F1 90 0D 61 04
 27.106927 1  310             Rx   d 8 38 82 A0 A2 79 C9 90 02
 27.107402 1  310             Rx   d 8 48 02 E0 D3 80 4D C1 03
 27.303182 1  300             Rx   d 8 89 00 06 32 00 00 00 00
 27.303641 1  310             Rx   d 8 09 82 2E 76 D2 65 14 14
 27.304059 1  310             Rx   d 8 19 82 2C B6 98 B1 71 06
 27.304428 1  310             Rx   d 8 29 82 A5 F0 8E 25 31 04
 27.304796 1  310             Rx   d 8 39 02 20 D3 80 3D 11 04
 27.305173 1  310             Rx   d 8 49 02 5E A2 7E C9 60 02
 27.305558 1  310             Rx   d 8 59 02 1B 4E 69 81 C1 02
 27.502994 1  300             Rx   d 8 8A 00 05 32 00 46 00 00
 27.503551 1  310             Rx   d 8 0A 02 EC 77 D7 51 44 14
 27.504042 1  310             Rx   d 8 1A 02 2B B6 98 A9 51 06
 27.504493 1  310             Rx   d 8 2A 02 27 F0 8F 31 41 04
 27.505001 1  310             Rx   d 8 3A 82 A0 A2 7D C1 60 02
 27.505459 1  310             Rx   d 8 4A 82 1A D2 80 39 D1 03
 27.703747 1  300             Rx   d 8 8B 00 05 32 00 46 00 00
 27.704590 1  310             Rx   d 8 0B 82 AD 7A D5 41 44 14
 27.705148 1  310             Rx   d 8 1B 82 EB B5 95 AD 61 06
 27.705696 1  310             Rx   d 8 2B 82 E6 EF 8B 41 31 04
 27.706262 1  310             Rx   d 8 3B 02 61 2D 66 61 D2 03
 27.706720 1  310             Rx   d 8 4B 02 DE A3 7A C1 90 02
 27.903590 1  300             Rx   d 8 8C 00 05 32 00 46 00 00
 27.904213 1  310             Rx   d 8 0C 02 EC B5 97 9D 41 06
 27.904762 1  310             Rx   d 8 1C 02 EB 7C DA 35 64 14
 27.905262 1  310             Rx   d 8 2C 82 26 EF 8B 51 51 04
 27.905720 1  310             Rx   d 8 3C 02 5F A4 7D AD 90 02
 27.906196 1  310             Rx   d 8 4C 02 9C 1D 67 B5 B3 04
 28.050023 1  320             Rx   d 8 1B 00 00 0E 00 02 00 00
 28.103606 1  300             Rx   d 8 8D 00 05 32 00 46 00 00
 28.104532 1  310             Rx   d 8 0D 02 AB B6 95 89 51 06
 28.105089 1  310             Rx   d 8 1D 02 EA 7E D4 21 64 13
 28.105638 1  310             Rx   d 8 2D 02 A0 EE 8A 59 51 04
 28.106154 1  310             Rx   d 8 3D 82 DD D1 7F 35 31 03
 28.106613 1  310             Rx   d 8 4D 02 5D A4 7A B1 90 02
 28.303622 1  300             Rx   d 8 8E 00 05 32 00 47 00 00
 28.304130 1  310             Rx   d 8 0E 82 AB 82 CF 2D 54 13
 28.304630 1  310             Rx   d 8 1E 82 29 B6 8C 95 F1 05
 28.305072 1  310             Rx   d 8 2E 82 66 EE 82 6D 51 04
 28.305523 1  310             Rx   d 8 3E 02 A5 D2 75 45 D1 03
 28.305998 1  310             Rx   d 8 4E 82 A0 A3 79 D5 60 02
 28.503736 1  300             Rx   d 8 8F 00 06 32 00 47 00 00
 28.504580 1  310             Rx   d 8 0F 02 AD 84 C4 1D 54 12
 28.505522 1  310             Rx   d 8 1F 82 69 B6 87 8D F1 05
 28.506423 1  310             Rx   d 8 2F 82 E7 D2 72 79 C1 03
 28.507038 1  310             Rx   d 8 3F 82 E7 ED 7B 7D A1 04
 28.507513 1  310             Rx   d 8 4F 02 1D A5 66 E9 B0 03
 28.508013 1  310             Rx   d 8 5F 02 1A 6A 72 E9 90 06
 28.703490 1  300             Rx   d 8 90 00 06 32 00 47 00 00
 28.704096 1  310             Rx   d 8 00 02 AD 85 C3 15 44 12
 28.704662 1  310             Rx   d 8 10 02 E7 B5 88 79 B1 05
 28.705153 1  310             Rx   d 8 20 82 22 D0 73 35 B1 03
 28.705595 1  310             Rx   d 8 30 02 22 EB 7C 55 C1 03
 28.706071 1  310             Rx   d 8 40 02 E1 68 77 15 E1 06
 28.706529 1  310             Rx   d 8 50 02 DB A4 76 A9 60 02
 28.903375 1  300             Rx   d 8 91 00 05 32 00 47 00 00
 28.903940 1  310             Rx   d 8 01 02 EB 86 C8 09 04 12
 28.904464 1  310             Rx   d 8 11 02 29 B5 8B 79 A1 05
 28.905030 1  310             Rx   d 8 21 02 A5 CE 78 29 B1 03
 28.905562 1  310             Rx   d 8 31 02 24 69 7C 65 21 07
 28.906078 1  310             Rx   d 8 41 02 20 EB 80 91 21 04
 29.050135 1  320             Rx   d 8 1B 00 00 0D 00 02 00 00
 29.103284 1  300             Rx   d 8 92 00 05 32 00 47 00 00
 29.103874 1  310             Rx   d 8 02 82 AB 87 C8 05 B4 11
 29.104423 1  310             Rx   d 8 12 02 E9 B3 8C 85 81 05
 29.104964 1  310             Rx   d 8 22 02 27 67 82 81 71 07
 29.105496 1  310             Rx   d 8 32 82 E4 CD 7A 3D 71 03
 29.105971 1  310             Rx   d 8 42 82 DD E5 81 5D F1 03
 29.303530 1  300             Rx   d 8 93 00 06 32 00 47 00 00
 29.304013 1  310             Rx   d 8 03 02 6D 88 CB 05 F4 11
 29.304488 1  310             Rx   d 8 13 02 2A 65 85 A5 01 08
 29.304889 1  310             Rx   d 8 23 82 67 B3 8B 95 81 05
 29.305332 1  310             Rx   d 8 33 02 A3 CB 7E 09 31 03
 29.305791 1  310             Rx   d 8 43 82 1E E9 83 D9 81 04
 29.306249 1  310             Rx   d 8 53 02 9E 48 7F E5 D1 04
 29.503324 1  300             Rx   d 8 94 00 05 32 00 47 00 00
 29.503865 1  310             Rx   d 8 04 82 6D 88 CC 01 04 12
 29.504356 1  310             Rx   d 8 14 82 2C 63 84 C9 61 08
 29.504856 1  310             Rx   d 8 24 02 A7 B1 8A 79 91 05
 29.505323 1  310             Rx   d 8 34 82 A3 CA 7F 19 A1 03
 29.505782 1  310             Rx   d 8 44 02 DD E4 80 C9 41 04
 29.703209 1  300             Rx   d 8 95 00 06 32 00 46 00 00
 29.704118 1  310             Rx   d 8 05 82 AD 88 C9 FD C3 11
 29.704790 1  310             Rx   d 8 15 02 ED 60 84 F9 A1 08
 29.705323 1  310             Rx   d 8 25 02 E8 B0 89 69 81 05
 29.705798 1  310             Rx   d 8 35 82 63 E4 82 AD 41 04
 29.706256 1  310             Rx   d 8 45 82 23 C9 7D 01 81 03
 29.706650 1  310             Rx   d 8 55 02 1F 27 6A 65 62 03
 29.903176 1  300             Rx   d 8 96 00 06 32 00 47 00 00
 29.903667 1  310             Rx   d 8 06 82 AD 88 C8 01 C4 11
 29.904101 1  310             Rx   d 8 16 02 29 5E 83 09 F2 08
 29.904503 1  310             Rx   d 8 26 82 A5 AF 88 6D 91 05
 29.904904 1  310             Rx   d 8 36 02 A5 C7 7E 11 71 03
 29.905380 1  310             Rx   d 8 46 02 61 E1 80 BD 41 04
 29.905830 1  310             Rx   d 8 56 82 5B 48 6E D9 10 02
 30.050132 1  320             Rx   d 8 1D 00 00 0A 00 02 00 00
 30.102708 1  300             Rx   d 8 97 00 07 32 00 00 00 00
 30.103241 1  310             Rx   d 8 07 02 AE 88 CB F5 C3 11
 30.103749 1  310             Rx   d 8 17 02 2D 5B 86 35 72 09
 30.104249 1  310             Rx   d 8 27 02 6A E0 81 BD 61 04
 30.104617 1  310             Rx   d 8 37 82 25 AE 86 55 51 05
 30.105092 1  310             Rx   d 8 47 82 63 C6 7A 05 11 03
 30.105469 1  310             Rx   d 8 57 02 23 43 6A E9 D0 01
 30.105854 1  310             Rx   d 8 67 02 5A BA 79 B1 F0 02
 30.303257 1  300             Rx   d 8 98 00 07 32 00 47 00 00
 30.304018 1  310             Rx   d 8 08 02 EE 87 C7 01 74 11
 30.304510 1  310             Rx   d 8 18 82 2C 58 88 69 D2 09
 30.305026 1  310             Rx   d 8 28 02 69 DF 7E D1 D1 04
 30.305501 1  310             Rx   d 8 38 02 E9 AC 84 45 41 05
 30.305984 1  310             Rx   d 8 48 82 20 C5 7C E5 60 03
 30.306386 1  310             Rx   d 8 58 02 DD B9 7C C9 20 03
 30.306755 1  310             Rx   d 8 68 02 1C 3B 66 49 11 02
 30.502707 1  300             Rx   d 8 99 00 07 32 00 00 00 00
 30.503256 1  310             Rx   d 8 09 82 2E 87 C9 FD D3 11
 30.503748 1  310             Rx   d 8 19 82 AC 54 8C 91 92 0A
 30.504215 1  310             Rx   d 8 29 02 A4 EE 2A 6E 41 13
 30.504673 1  310             Rx   d 8 39 82 23 AB 82 49 61 05
 30.505148 1  310             Rx   d 8 49 02 9F D4 81 B9 20 04
 30.505550 1  310             Rx   d 8 59 82 9E B9 7F E5 70 03
 30.505943 1  310             Rx   d 8 69 82 19 32 67 ED 61 03
 30.703329 1  300             Rx   d 8 9A 00 08 32 00 47 00 00
 30.703854 1  310             Rx   d 8 0A 02 EE 85 C6 F1 93 11
 30.704370 1  310             Rx   d 8 1A 02 2D 51 8D C1 02 0B
 30.704861 1  310             Rx   d 8 2A 02 6B E8 00 26 42 14
 30.705287 1  310             Rx   d 8 3A 02 27 A9 81 55 41 05
 30.705672 1  310             Rx   d 8 4A 02 63 B8 7E CD 60 03
 30.706041 1  310             Rx   d 8 5A 02 A0 24 66 BD 51 03
 30.706426 1  310             Rx   d 8 6A 82 DD C1 80 D5 70 03
 30.706803 1  310             Rx   d 8 7A 02 9C D8 82 81 01 04
 30.903132 1  300             Rx   d 8 9B 00 07 32 00 47 00 00
 30.903665 1  310             Rx   d 8 0B 82 6E 85 C6 F1 B3 11
 30.904148 1  310             Rx   d 8 1B 82 2C E4 15 B2 A2 17
 30.904639 1  310             Rx   d 8 2B 02 2C 4E 90 FD C2 0B
 30.905115 1  310             Rx   d 8 3B 82 E7 A7 80 31 01 05
 30.905582 1  310             Rx   d 8 4B 82 24 B8 81 01 B1 03
 30.906016 1  310             Rx   d 8 5B 02 5F 69 55 19 E1 04
 30.906376 1  310             Rx   d 8 6B 02 1E C1 81 CD 90 03
 31.049990 1  320             Rx   d 8 1D 00 00 0B 00 02 00 00
 31.103164 1  300             Rx   d 8 9C 00 07 32 00 47 00 00
 31.103705 1  310             Rx   d 8 0C 82 EE 84 C2 E9 B3 11
 31.104197 1  310             Rx   d 8 1C 02 6E 4B 90 45 73 0C
 31.104664 1  310             Rx   d 8 2C 02 6D E0 ED 2D 13 13
 31.105131 1  310             Rx   d 8 3C 82 24 A7 7C 29 E1 04
 31.105606 1  310             Rx   d 8 4C 02 24 BB 81 4D 91 03
 31.105999 1  310             Rx   d 8 5C 02 9C 67 62 1D 81 06
 31.106376 1  310             Rx   d 8 6C 02 9B 0F 67 ED 31 05
 31.303393 1  300             Rx   d 8 9D 00 06 32 00 47 00 00
 31.303926 1  310             Rx   d 8 0D 82 AE 84 C3 D9 43 11
 31.304409 1  310             Rx   d 8 1D 82 2C 48 91 75 13 0D
 31.304901 1  310             Rx   d 8 2D 02 AC DC E3 8D F3 11
 31.305376 1  310             Rx   d 8 3D 02 AA A5 7C 2D C1 04
 31.305859 1  310             Rx   d 8 4D 82 23 B9 81 35 C1 03
 31.306244 1  310             Rx   d 8 5D 82 9A 66 65 39 F1 06
 31.502279 1  300             Rx   d 8 9E 00 06 32 00 47 00 00
 31.502820 1  310             Rx   d 8 0E 02 EE 83 BE BD 23 11
 31.503303 1  310             Rx   d 8 1E 82 6D 44 94 C9 F3 0D
 31.503762 1  310             Rx   d 8 2E 02 AD D9 CC E5 53 0F
 31.504237 1  310             Rx   d 8 3E 82 27 A5 7A 1D C1 04
 31.504695 1  310             Rx   d 8 4E 82 A3 B8 80 35 D1 03
 31.505072 1  310             Rx   d 8 5E 82 E1 64 64 59 81 07
 31.702672 1  300             Rx   d 8 9F 00 06 32 00 47 00 00
 31.703269 1  310             Rx   d 8 0F 82 EC 83 BA A1 63 10
 31.703786 1  310             Rx   d 8 1F 02 6C 40 97 FD C3 0E
 31.704277 1  310             Rx   d 8 2F 82 EB D6 B8 3D 04 0D
 31.704818 1  310             Rx   d 8 3F 02 65 A3 7C 15 A1 04
 31.705301 1  310             Rx   d 8 4F 82 A4 63 69 69 81 08
 31.705678 1  310             Rx   d 8 5F 82 E3 B5 7F FD 00 04
 31.902843 1  300             Rx   d 8 A0 00 07 32 00 47 00 00
 31.903564 1  310             Rx   d 8 00 82 6D 84 B3 71 C3 0F
 31.904088 1  310             Rx   d 8 10 02 ED 3B 9B 51 74 0F
 31.904588 1  310             Rx   d 8 20 02 6D D1 B7 19 44 0D
 31.905055 1  310             Rx   d 8 30 82 E6 61 68 6D 01 09
 31.905530 1  310             Rx   d 8 40 02 A4 A2 7D 29 91 04
 31.905956 1  310             Rx   d 8 50 82 A1 F0 87 2D 01 06
 31.906341 1  310             Rx   d 8 60 02 9B B4 7D BD E0 03
 32.049988 1  320             Rx   d 8 1C 00 00 0B 00 02 00 00
 32.102736 1  300             Rx   d 8 A1 00 06 32 00 47 00 00
 32.103277 1  310             Rx   d 8 01 02 AE CA B2 B5 53 0C
 32.103760 1  310             Rx   d 8 11 82 2D 84 B2 49 F3 0E
 32.104235 1  310             Rx   d 8 21 82 AD 37 A0 9D 44 10
 32.104710 1  310             Rx   d 8 31 82 E9 60 6B 91 01 09
 32.105185 1  310             Rx   d 8 41 82 A8 EE 88 61 F1 05
 32.105562 1  310             Rx   d 8 51 02 60 A4 7F 5D 61 04
 32.302637 1  300             Rx   d 8 A2 00 06 32 00 47 00 00
 32.303194 1  310             Rx   d 8 02 02 2F 32 A3 0D 05 11
 32.303702 1  310             Rx   d 8 12 02 AE C4 AD 69 83 0B
 32.304185 1  310             Rx   d 8 22 82 2D EB 8B D1 C1 05
 32.304644 1  310             Rx   d 8 32 02 2D 84 AD 11 F3 0D
 32.305103 1  310             Rx   d 8 42 82 A8 5F 6F AD 71 09
 32.305496 1  310             Rx   d 8 52 02 1E A0 80 FD A0 04
 32.501867 1  300             Rx   d 8 A3 00 06 32 00 47 00 00
 32.502407 1  310             Rx   d 8 03 82 EE BE A8 15 93 0A
 32.502907 1  310             Rx   d 8 13 02 2E 84 AD F1 62 0D
 32.503390 1  310             Rx   d 8 23 82 2D 2E AA 41 C5 11
 32.503874 1  310             Rx   d 8 33 02 6C 5F 76 CD 81 09
 32.504324 1  310             Rx   d 8 43 02 EC E8 8D 05 F2 05
 32.504701 1  310             Rx   d 8 53 02 A4 9E 82 E9 90 04
 32.702382 1  300             Rx   d 8 A4 00 06 32 00 47 00 00
 32.702923 1  310             Rx   d 8 04 02 30 2B BA 61 C5 12
 32.703423 1  310             Rx   d 8 14 82 ED BA B4 C9 F2 09
 32.703799 1  310             Rx   d 8 24 02 2D 84 B9 D5 D2 0C
 32.704258 1  310             Rx   d 8 34 82 6B 5E 85 F9 C1 09
 32.704668 1  310             Rx   d 8 44 82 EA E8 9E 19 D2 05
 32.705069 1  310             Rx   d 8 54 82 22 9E 97 ED 00 04
 32.902447 1  300             Rx   d 8 A5 00 07 32 00 47 00 00
 32.903201 1  310             Rx   d 8 05 02 70 29 C7 29 45 14
 32.903922 1  310             Rx   d 8 15 82 AE B7 AE 9D 02 09
 32.904422 1  310             Rx   d 8 25 02 2C 84 BA A1 32 0C
 32.904823 1  310             Rx   d 8 35 02 EB 5B 87 21 C2 09
 32.905191 1  310             Rx   d 8 45 02 AB E7 A5 FD C1 05
 32.905576 1  310             Rx   d 8 55 82 61 9D 9C CD C0 03
 32.905962 1  310             Rx   d 8 65 82 9A D2 9C 65 81 04
 33.050092 1  320             Rx   d 8 1D 00 00 0B 00 02 00 00
 33.102307 1  300             Rx   d 8 A6 00 07 32 00 47 00 00
 33.103045 1  310             Rx   d 8 06 82 AE 27 BE F1 D4 16
 33.103880 1  310             Rx   d 8 16 02 2D B4 AE 71 E2 08
 33.104421 1  310             Rx   d 8 26 02 ED 83 B5 99 F2 0B
 33.104921 1  310             Rx   d 8 36 02 AD 59 8B 45 C2 0A
 33.105322 1  310             Rx   d 8 46 02 AC E5 A3 F5 61 05
 33.105715 1  310             Rx   d 8 56 82 E0 9B 99 BD A0 03
 33.106100 1  310             Rx   d 8 66 02 59 CE 9E 41 41 04
 33.302209 1  300             Rx   d 8 A7 00 07 32 00 47 00 00
 33.302774 1  310             Rx   d 8 07 82 6E 25 D0 AD 84 18
 33.303274 1  310             Rx   d 8 17 02 ED B1 A8 61 F2 07
 33.303741 1  310             Rx   d 8 27 02 2D 84 B2 81 C2 0B
 33.304199 1  310             Rx   d 8 37 82 EC 57 8A 5D 62 0B
 33.304666 1  310             Rx   d 8 47 82 AB E4 A2 F5 51 05
 33.305043 1  310             Rx   d 8 57 82 DD CE 9C 6D 81 04
 33.305436 1  310             Rx   d 8 67 02 5C 9B 95 B5 A0 03
 33.501995 1  300             Rx   d 8 A8 00 07 32 00 47 00 00
 33.502544 1  310             Rx   d 8 08 02 AE AF A4 31 82 07
 33.503044 1  310             Rx   d 8 18 02 EE 22 DE 59 D4 1D
 33.503502 1  310             Rx   d 8 28 02 6C 54 8A 99 C2 0B
 33.504019 1  310             Rx   d 8 38 02 EC 83 AE 75 62 0B
 33.504543 1  310             Rx   d 8 48 82 69 E5 A3 39 32 05
 33.504961 1  310             Rx   d 8 58 82 62 CB A3 41 E1 03
 33.505337 1  310             Rx   d 8 68 02 DA 9A 92 99 D0 03
 33.702249 1  300             Rx   d 8 A9 00 07 32 00 47 00 00
 33.702797 1  310             Rx   d 8 09 82 2D AE A5 29 62 07
 33.703297 1  310             Rx   d 8 19 82 AD 1F FA F1 03 22
 33.703797 1  310             Rx   d 8 29 82 AB 83 AD 7D 22 0B
 33.704256 1  310             Rx   d 8 39 02 2A E2 A5 DD 21 05
 33.704624 1  310             Rx   d 8 49 82 A8 50 8C DD 12 0C
 33.705001 1  310             Rx   d 8 59 02 A4 CA A2 21 01 04
 33.705370 1  310             Rx   d 8 69 82 E1 69 96 BD 60 04
 33.902338 1  300             Rx   d 8 AA 00 09 32 00 47 00 00
 33.902879 1  310             Rx   d 8 0A 02 AD AB A5 F9 61 07
 33.903370 1  310             Rx   d 8 1A 82 EC 1A F2 59 43 23
 33.903837 1  310             Rx   d 8 2A 82 EB 83 AE 79 52 0B
 33.904214 1  310             Rx   d 8 3A 82 2B 4E 8E FD 02 0D
 33.904583 1  310             Rx   d 8 4A 82 AA E1 A6 D9 41 05
 33.904984 1  310             Rx   d 8 5A 02 67 CA A1 05 21 04
 33.905369 1  310             Rx   d 8 6A 82 E5 69 97 CD 70 04
 33.905746 1  310             Rx   d 8 7A 82 61 BE A1 CD 40 04
 34.050048 1  320             Rx   d 8 1D 00 00 0C 00 02 00 00
 34.102583 1  300             Rx   d 8 AB 00 0A 32 00 47 00 00
 34.103124 1  310             Rx   d 8 0B 02 2D AA A4 E1 31 07
 34.103640 1  310             Rx   d 8 1B 02 AB 83 AD 81 92 0B
 34.104042 1  310             Rx   d 8 2B 02 6A E1 A7 E1 31 05
 34.104410 1  310             Rx   d 8 3B 82 A8 13 0E 7A 52 22
 34.104803 1  310             Rx   d 8 4B 82 E6 67 96 E9 A0 04
 34.105180 1  310             Rx   d 8 5B 82 64 BD A3 09 21 04
 34.105557 1  310             Rx   d 8 6B 02 A3 CA A3 01 51 04
 34.105958 1  310             Rx   d 8 7B 02 A2 4A 93 3D 13 0E
 34.302681 1  300             Rx   d 8 AC 00 09 32 00 48 00 00
 34.303238 1  310             Rx   d 8 0C 02 2A A9 9D D9 D1 06
 34.303738 1  310             Rx   d 8 1C 82 69 83 A5 85 92 0B
 34.304238 1  310             Rx   d 8 2C 82 E9 E0 9C E9 A1 05
 34.304623 1  310             Rx   d 8 3C 02 A9 45 8B 81 03 0F
 34.305032 1  310             Rx   d 8 4C 82 E6 66 8F 05 01 05
 34.305401 1  310             Rx   d 8 5C 02 E6 BC 9A 19 A1 04
 34.305802 1  310             Rx   d 8 6C 02 A3 CA 9B 15 51 04
 34.306163 1  310             Rx   d 8 7C 82 E2 0A 4D 5A 21 16
 34.502443 1  300             Rx   d 8 AD 00 08 32 00 47 00 00
 34.503156 1  310             Rx   d 8 0D 02 2B A7 96 C9 71 06
 34.503590 1  310             Rx   d 8 1D 02 6A 65 8E 19 31 05
 34.503975 1  310             Rx   d 8 2D 82 A9 83 A4 95 22 0C
 34.504352 1  310             Rx   d 8 3D 02 E9 E0 99 D5 31 05
 34.504720 1  310             Rx   d 8 4D 02 24 F3 9D D9 C0 04
 34.505105 1  310             Rx   d 8 5D 82 63 41 8A C9 D3 0F
 34.505466 1  310             Rx   d 8 6D 82 E1 CA 9A 11 61 04
 34.505843 1  310             Rx   d 8 7D 82 20 BC 99 19 A1 04
 34.702008 1  300             Rx   d 8 AE 00 06 32 00 47 00 00
 34.702549 1  310             Rx   d 8 0E 02 EB E0 A1 E9 71 05
 34.703057 1  310             Rx   d 8 1E 02 6B 83 AA 99 52 0C
 34.703524 1  310             Rx   d 8 2E 82 EA A5 9D AD F1 05
 34.703958 1  310             Rx   d 8 3E 02 26 65 96 21 C1 04
 34.704360 1  310             Rx   d 8 4E 02 A6 3C 91 21 74 10
 34.704736 1  310             Rx   d 8 5E 82 65 C2 9C 09 42 05
 34.901901 1  300             Rx   d 8 AF 00 06 32 00 47 00 00
 34.902442 1  310             Rx   d 8 0F 02 EA E1 A8 05 22 05
 34.902852 1  310             Rx   d 8 1F 82 69 A5 A2 9D 01 06
 34.903311 1  310             Rx   d 8 2F 02 E9 64 9B 25 A1 04
 34.903695 1  310             Rx   d 8 3F 82 E8 82 B0 A5 32 0C
 34.904072 1  310             Rx   d 8 4F 82 A5 C2 A5 05 02 05
 34.904457 1  310             Rx   d 8 5F 02 64 38 99 69 C4 11
 35.049996 1  320             Rx   d 8 1D 00 00 0E 00 02 00 00
 35.102057 1  300             Rx   d 8 B0 00 06 32 00 47 00 00
 35.102646 1  310             Rx   d 8 00 02 2D E1 A7 E5 51 05
 35.103138 1  310             Rx   d 8 10 02 E9 34 9B A5 B4 12
 35.103613 1  310             Rx   d 8 20 02 68 83 B0 B1 A2 0C
 35.104088 1  310             Rx   d 8 30 02 28 64 9B 45 A1 04
 35.104473 1  310             Rx   d 8 40 02 E8 A4 A2 6D F1 05
 35.104858 1  310             Rx   d 8 50 82 A7 C2 A5 05 02 05
 35.301769 1  300             Rx   d 8 B1 00 06 32 00 47 00 00
 35.302433 1  310             Rx   d 8 01 02 AD E0 A7 F5 21 05
 35.303006 1  310             Rx   d 8 11 02 AA 31 98 E5 44 13
 35.303547 1  310             Rx   d 8 21 82 69 83 B0 C1 A2 0C
 35.304014 1  310             Rx   d 8 31 02 69 63 9B 5D 81 04
 35.304456 1  310             Rx   d 8 41 02 E9 A3 A0 59 91 05
 35.304915 1  310             Rx   d 8 51 02 26 C3 A4 05 12 05
 35.500827 1  300             Rx   d 8 B2 00 07 32 00 47 00 00
 35.501343 1  310             Rx   d 8 02 02 2B E1 AB E5 21 05
 35.501925 1  310             Rx   d 8 12 02 6A 2F 9C 09 C5 13
 35.502449 1  310             Rx   d 8 22 82 28 C3 A9 01 22 05
 35.502916 1  310             Rx   d 8 32 02 27 A2 A5 41 61 05
 35.503456 1  310             Rx   d 8 42 02 A3 62 9E 79 A1 04
 35.503915 1  310             Rx   d 8 52 82 62 83 B7 D1 22 0D
 35.504382 1  310             Rx   d 8 62 82 9C AF A1 AD D0 02
 35.701309 1  300             Rx   d 8 B3 00 07 32 00 47 00 00
 35.702071 1  310             Rx   d 8 03 82 EB E1 B5 E9 91 05
 35.702694 1  310             Rx   d 8 13 82 A9 A1 AE 31 01 05
 35.703227 1  310             Rx   d 8 23 02 68 C2 B3 C9 31 05
 35.703751 1  310             Rx   d 8 33 82 65 84 C5 ED 22 0E
 35.704275 1  310             Rx   d 8 43 82 20 2E AD 21 95 14
 35.704808 1  310             Rx   d 8 53 82 5F B0 AA C5 10 03
 35.705275 1  310             Rx   d 8 63 82 9A 62 A4 A1 A1 04
 35.901325 1  300             Rx   d 8 B4 00 07 32 00 47 00 00
 35.901874 1  310             Rx   d 8 04 82 2B C3 BA B1 41 05
 35.902399 1  310             Rx   d 8 14 82 E9 E2 BF DD 31 05
 35.902915 1  310             Rx   d 8 24 82 27 A1 B6 35 C1 04
 35.903447 1  310             Rx   d 8 34 02 E7 2C AC 3D F5 13
 35.903955 1  310             Rx   d 8 44 82 A3 63 AE B9 71 04
 35.904397 1  310             Rx   d 8 54 82 A0 B0 B5 D5 30 03
 35.904864 1  310             Rx   d 8 64 82 9F 84 D0 F9 52 0E
 36.049904 1  320             Rx   d 8 1A 00 00 0F 00 02 00 00
 36.101448 1  300             Rx   d 8 B5 00 07 32 00 47 00 00
 36.102242 1  310             Rx   d 8 05 02 AC C3 BB AD 31 05
 36.103037 1  310             Rx   d 8 15 02 AA E2 BF D5 31 05
 36.103791 1  310             Rx   d 8 25 02 66 A1 B5 01 B1 04
 36.104364 1  310             Rx   d 8 35 82 E3 B0 B3 F1 40 03
 36.104888 1  310             Rx   d 8 45 82 21 2C B0 51 C5 14
 36.105355 1  310             Rx   d 8 55 82 20 68 AC 05 11 04
 36.105814 1  310             Rx   d 8 65 02 A0 84 CE 0D A3 0E
 36.301021 1  300             Rx   d 8 B6 00 07 32 00 47 00 00
 36.301595 1  310             Rx   d 8 06 02 ED E3 B7 E9 61 05
 36.302168 1  310             Rx   d 8 16 82 EC C4 B2 A9 61 05
 36.302692 1  310             Rx   d 8 26 02 27 69 A4 11 41 04
 36.303233 1  310             Rx   d 8 36 02 67 A1 AC F1 80 04
 36.303700 1  310             Rx   d 8 46 82 24 85 C2 19 33 0E
 36.304167 1  310             Rx   d 8 56 82 E1 B1 AA F5 B0 03
 36.304618 1  310             Rx   d 8 66 82 5D 2C 9D 59 E5 13
 36.501070 1  300             Rx   d 8 B7 00 06 32 00 47 00 00
 36.501701 1  310             Rx   d 8 07 02 6C E4 B0 E5 41 05
 36.502143 1  310             Rx   d 8 17 02 AB C6 AD B1 71 05
 36.502553 1  310             Rx   d 8 27 82 A8 85 C5 19 03 0F
 36.502954 1  310             Rx   d 8 37 02 25 A2 A7 E1 30 04
 36.503347 1  310             Rx   d 8 47 82 A4 2D A3 35 D5 14
 36.503749 1  310             Rx   d 8 57 82 E4 B2 A6 ED A0 03
 36.700267 1  300             Rx   d 8 B8 00 06 32 00 47 00 00
 36.700824 1  310             Rx   d 8 08 02 AD E4 B6 E5 61 05
 36.701307 1  310             Rx   d 8 18 82 2B C7 B1 BD 91 05
 36.701774 1  310             Rx   d 8 28 02 EA 85 C8 29 83 0F
 36.702167 1  310             Rx   d 8 38 02 E9 A1 AA E1 E0 03
 36.702544 1  310             Rx   d 8 48 82 E2 B3 AA FD B0 03
 36.702913 1  310             Rx   d 8 58 02 22 2F A5 1D 85 14
 36.901044 1  300             Rx   d 8 B9 00 07 32 00 47 00 00
 36.901814 1  310             Rx   d 8 09 02 2D E5 B6 ED 71 05
 36.902544 1  310             Rx   d 8 19 82 2B 86 C6 25 23 0F
 36.902986 1  310             Rx   d 8 29 02 AB C8 B3 C5 81 05
 36.903346 1  310             Rx   d 8 39 02 A8 B5 AC 11 E1 03
 36.903723 1  310             Rx   d 8 49 82 A7 A1 A9 E1 00 04
 36.904100 1  310             Rx   d 8 59 82 5E 32 9A E1 44 12
 36.904485 1  310             Rx   d 8 69 02 1B 6B A4 C5 F0 03
 37.050098 1  320             Rx   d 8 1C 00 00 0D 00 02 00 00
 37.101019 1  300             Rx   d 8 BA 00 07 32 00 47 00 00
 37.101765 1  310             Rx   d 8 0A 82 2B 36 9F 9D 24 12
 37.102314 1  310             Rx   d 8 1A 02 AB C9 B1 CD 81 05
 37.102723 1  310             Rx   d 8 2A 02 EA 86 C6 15 03 0F
 37.103092 1  310             Rx   d 8 3A 82 29 E5 B3 D9 51 05
 37.103469 1  310             Rx   d 8 4A 82 E5 A1 A7 D9 80 03
 37.103862 1  310             Rx   d 8 5A 82 64 B6 A9 01 D1 03
 37.104239 1  310             Rx   d 8 6A 82 1B F1 37 22 41 15
 37.300355 1  300             Rx   d 8 BB 00 07 32 00 00 00 00
 37.300953 1  310             Rx   d 8 0B 82 6D E9 EF 15 D2 16
 37.301453 1  310             Rx   d 8 1B 82 AC CA B3 C5 B1 05
 37.301961 1  310             Rx   d 8 2B 02 EB 86 C8 15 83 0E
 37.302346 1  310             Rx   d 8 3B 02 E7 39 9D 6D F4 10
 37.302731 1  310             Rx   d 8 4B 02 A6 A1 A7 D1 C0 03
 37.303157 1  310             Rx   d 8 5B 82 E2 B3 AA 81 F1 03
 37.303542 1  310             Rx   d 8 6B 82 9F AD A6 B9 60 03
 37.501133 1  300             Rx   d 8 BC 00 09 32 00 47 00 00
 37.501649 1  310             Rx   d 8 0C 82 6D 87 CF 11 23 0E
 37.502034 1  310             Rx   d 8 1C 82 2A C9 B7 7D 61 05
 37.502419 1  310             Rx   d 8 2C 02 2A E5 05 A2 02 1A
 37.502812 1  310             Rx   d 8 3C 82 27 3E A4 19 84 10
 37.503197 1  310             Rx   d 8 4C 02 E7 B8 AF 19 11 04
 37.503599 1  310             Rx   d 8 5C 02 A4 A1 AA C9 F0 03
 37.503976 1  310             Rx   d 8 6C 82 DE 6E A6 C1 D0 03
 37.504360 1  310             Rx   d 8 7C 02 DE AD A8 BD A0 03
 37.700960 1  300             Rx   d 8 BD 00 08 32 00 47 00 00
 37.701493 1  310             Rx   d 8 0D 02 ED 87 D1 05 73 0E
 37.702001 1  310             Rx   d 8 1D 02 E6 B9 B1 0D F1 03
 37.702476 1  310             Rx   d 8 2D 02 66 E0 EA 39 43 15
 37.702951 1  310             Rx   d 8 3D 02 A5 42 AA D5 93 10
 37.703328 1  310             Rx   d 8 4D 02 E4 A1 AB DD D0 03
 37.703705 1  310             Rx   d 8 5D 02 9F AE AA B9 A0 03
 37.704098 1  310             Rx   d 8 6D 82 1E C5 B9 C5 80 05
 37.704499 1  310             Rx   d 8 7D 02 DD 6F A6 C5 E0 03
 37.900624 1  300             Rx   d 8 BE 00 07 32 00 47 00 00
 37.901673 1  310             Rx   d 8 0E 82 2D 88 D2 FD 22 0E
 37.902508 1  310             Rx   d 8 1E 02 28 DD E4 89 D3 12
 37.903172 1  310             Rx   d 8 2E 02 A5 46 A9 A1 53 0F
 37.903672 1  310             Rx   d 8 3E 82 64 BC B2 51 61 04
 37.904097 1  310             Rx   d 8 4E 82 A2 A1 AA C9 D0 03
 37.904466 1  310             Rx   d 8 5E 02 E2 AE A9 D1 80 03
 37.904867 1  310             Rx   d 8 6E 02 9C 71 A4 B9 00 04
 38.049915 1  320             Rx   d 8 1E 00 00 0B 00 02 00 00
 38.100558 1  300             Rx   d 8 BF 00 07 32 00 47 00 00
 38.101131 1  310             Rx   d 8 0F 82 2C DB D8 D1 D3 0F
 38.101615 1  310             Rx   d 8 1F 82 EC 88 D6 E1 E2 0D
 38.102106 1  310             Rx   d 8 2F 82 E9 4A AE 71 83 0E
 38.102598 1  310             Rx   d 8 3F 02 A6 BA B0 ED D0 03
 38.102975 1  310             Rx   d 8 4F 82 E4 AF A9 CD 90 03
 38.103360 1  310             Rx   d 8 5F 02 24 A1 A9 D5 A0 03
 38.103736 1  310             Rx   d 8 6F 82 5C 72 A2 B5 10 04
 38.299927 1  300             Rx   d 8 C0 00 06 32 00 47 00 00
 38.300508 1  310             Rx   d 8 00 02 2E D9 D6 05 64 0F
 38.301016 1  310             Rx   d 8 10 02 ED 88 D5 E1 A2 0D
 38.301483 1  310             Rx   d 8 20 82 A8 4E AA 3D 03 0E
 38.301884 1  310             Rx   d 8 30 82 23 A1 A8 C1 80 03
 38.302261 1  310             Rx   d 8 40 82 A0 B4 AC 51 F1 03
 38.302646 1  310             Rx   d 8 50 02 1A 73 A2 B5 70 03
 38.500450 1  300             Rx   d 8 C1 00 06 32 00 47 00 00
 38.500975 1  310             Rx   d 8 01 82 2D D2 CE 91 53 0E
 38.501474 1  310             Rx   d 8 11 02 ED 88 CF CD 32 0D
 38.501958 1  310             Rx   d 8 21 82 EA 51 A6 09 23 0D
 38.502441 1  310             Rx   d 8 31 02 27 A0 A0 D5 90 03
 38.502818 1  310             Rx   d 8 41 02 E5 B0 A4 01 B1 03
 38.503186 1  310             Rx   d 8 51 82 DF F0 BB 0D 01 05
 38.700237 1  300             Rx   d 8 C2 00 06 32 00 47 00 00
 38.701007 1  310             Rx   d 8 02 02 6D 89 CE C9 E2 0C
 38.701490 1  310             Rx   d 8 12 02 AB CC C6 35 13 0D
 38.702006 1  310             Rx   d 8 22 82 69 55 A2 E5 A2 0C
 38.702482 1  310             Rx   d 8 32 02 67 ED B6 79 61 05
 38.702875 1  310             Rx   d 8 42 82 A6 9F 9C C1 C0 03
 38.703252 1  310             Rx   d 8 52 82 64 B0 9F E9 80 03
 38.900228 1  300             Rx   d 8 C3 00 07 32 00 47 00 00
 38.900777 1  310             Rx   d 8 03 82 6C 89 CA BD 92 0C
 38.901277 1  310             Rx   d 8 13 82 EA 57 9C B9 12 0C
 38.901752 1  310             Rx   d 8 23 82 A7 9E 97 C9 A0 03
 38.902194 1  310             Rx   d 8 33 02 A7 AE 98 D1 B0 03
 38.902579 1  310             Rx   d 8 43 02 67 C9 C0 21 03 0C
 38.902989 1  310             Rx   d 8 53 82 5F ED B0 81 51 05
 38.903382 1  310             Rx   d 8 63 82 1C E2 BA F5 60 06
 39.050109 1  320             Rx   d 8 1D 00 00 0B 00 02 00 00
 39.100228 1  300             Rx   d 8 C4 00 07 32 00 47 00 00
 39.100768 1  310             Rx   d 8 04 82 AD 88 C7 B9 82 0C
 39.101252 1  310             Rx   d 8 14 82 2C 5A 96 A1 72 0B
 39.101620 1  310             Rx   d 8 24 82 2A C5 BB C9 52 0B
 39.102014 1  310             Rx   d 8 34 02 E5 9D 96 D1 90 03
 39.102390 1  310             Rx   d 8 44 82 E3 AD 93 B1 60 03
 39.102775 1  310             Rx   d 8 54 02 9F E1 B5 8D 21 07
 39.103185 1  310             Rx   d 8 64 82 1A 74 8F B1 C0 03
 39.300219 1  300             Rx   d 8 C5 00 06 32 00 47 00 00
 39.300973 1  310             Rx   d 8 05 82 2D 88 BE A1 42 0C
 39.301653 1  310             Rx   d 8 15 02 EC C0 B2 99 E2 0A
 39.302177 1  310             Rx   d 8 25 82 6A E0 AF DD 51 07
 39.302677 1  310             Rx   d 8 35 02 2A 5C 8E 81 C2 0A
 39.303053 1  310             Rx   d 8 45 02 E2 9D 8B D1 60 03
 39.303447 1  310             Rx   d 8 55 02 5D EF A3 41 01 05
 39.499432 1  300             Rx   d 8 C6 00 05 32 00 46 00 00
 39.500112 1  310             Rx   d 8 06 02 6E 88 B6 9D 32 0C
 39.500546 1  310             Rx   d 8 16 82 EC E0 A9 19 82 07
 39.500939 1  310             Rx   d 8 26 82 2A 5E 85 59 D2 0A
 39.501324 1  310             Rx   d 8 36 82 A9 BE A4 6D 02 0A
 39.501693 1  310             Rx   d 8 46 82 E4 EF 9D 3D F1 04
 39.699481 1  300             Rx   d 8 C7 00 05 32 00 46 00 00
 39.700341 1  310             Rx   d 8 07 82 AD 87 B6 99 32 0C
 39.700849 1  310             Rx   d 8 17 82 AD E3 AD B5 D2 07
 39.701316 1  310             Rx   d 8 27 82 2B 60 86 35 C2 0A
 39.701783 1  310             Rx   d 8 37 82 6A BD A2 4D C2 09
 39.702250 1  310             Rx   d 8 47 82 9B 43 8C 71 51 04
 39.899087 1  300             Rx   d 8 C8 00 05 32 00 46 00 00
 39.899636 1  310             Rx   d 8 08 82 AE E5 AF 85 32 08
 39.900103 1  310             Rx   d 8 18 02 2E 88 B4 95 02 0C
 39.900562 1  310             Rx   d 8 28 02 A8 61 83 2D 52 0A
 39.901020 1  310             Rx   d 8 38 02 A8 BB 9D 21 32 09
 39.901487 1  310             Rx   d 8 48 02 1A 9C 7D C1 10 03
 40.050098 1  320             Rx   d 8 1D 00 00 0A 00 02 00 00
 40.099111 1  300             Rx   d 8 C9 00 06 32 00 46 00 00
 40.099660 1  310             Rx   d 8 09 82 AD 88 A8 8D 02 0C
 40.100135 1  310             Rx   d 8 19 82 2C E6 A3 6D A2 07
 40.100602 1  310             Rx   d 8 29 02 69 63 7C 29 32 0A
 40.101061 1  310             Rx   d 8 39 82 68 B9 93 21 F2 08
 40.101454 1  310             Rx   d 8 49 82 1B 4A 6D F5 A0 02
 40.101831 1  310             Rx   d 8 59 82 D9 CE 8D 11 C1 04
 40.298840 1  300             Rx   d 8 CA 00 06 32 00 00 00 00
 40.299610 1  310             Rx   d 8 0A 02 6E 88 A8 8D 42 0C
 40.300331 1  310             Rx   d 8 1A 82 ED E7 A6 35 F2 07
 40.300831 1  310             Rx   d 8 2A 02 AC 64 7C 0D C2 09
 40.301314 1  310             Rx   d 8 3A 02 2B B8 92 09 A2 08
 40.301789 1  310             Rx   d 8 4A 02 DC 44 73 19 D1 03
 40.302182 1  310             Rx   d 8 5A 02 1B CF 90 65 71 04
 40.499208 1  300             Rx   d 8 CB 00 05 32 00 46 00 00
 40.499716 1  310             Rx   d 8 0B 02 EE 87 AC 91 62 0C
 40.500200 1  310             Rx   d 8 1B 82 6C E9 A9 11 02 08
 40.500650 1  310             Rx   d 8 2B 82 29 65 7A F5 B1 09
 40.501109 1  310             Rx   d 8 3B 82 27 B7 90 05 32 08
 40.501568 1  310             Rx   d 8 4B 82 1A 3D 66 D1 30 02
 40.699257 1  300             Rx   d 8 CC 00 06 32 00 46 00 00
 40.699798 1  310             Rx   d 8 0C 82 ED EA AD E1 81 08
 40.700305 1  310             Rx   d 8 1C 82 6D 87 A8 8D F2 0B
 40.700748 1  310             Rx   d 8 2C 82 AB 65 79 F9 A1 09
 40.701223 1  310             Rx   d 8 3C 82 23 B6 8C 09 C2 07
 40.701682 1  310             Rx   d 8 4C 02 1A 36 63 15 31 02
 40.702050 1  310             Rx   d 8 5C 02 19 9C 74 DD 80 02
 40.898970 1  300             Rx   d 8 CD 00 06 32 00 46 00 00
 40.899633 1  310             Rx   d 8 0D 82 AC 86 A0 A1 02 0C
 40.900149 1  310             Rx   d 8 1D 02 6C EC AA B9 D1 08
 40.900641 1  310             Rx   d 8 2D 02 6B 65 73 DD 61 09
 40.901116 1  310             Rx   d 8 3D 02 29 B6 85 21 C2 07
 40.901599 1  310             Rx   d 8 4D 02 DF CC 83 C5 B1 05
 40.902001 1  310             Rx   d 8 5D 82 19 41 86 89 71 05
 41.050104 1  320             Rx   d 8 1C 00 00 0B 00 02 00 00
 41.099223 1  300             Rx   d 8 CE 00 05 32 00 46 00 00
 41.099772 1  310             Rx   d 8 0E 02 EB 84 9C 95 02 0C
 41.100272 1  310             Rx   d 8 1E 02 AB B1 83 ED B1 07
 41.100673 1  310             Rx   d 8 2E 02 6A EC A9 B5 41 09
 41.101140 1  310             Rx   d 8 3E 02 E5 63 71 B9 51 09
 41.101591 1  310             Rx   d 8 4E 02 DE 23 5E 85 41 03
 41.298666 1  300             Rx   d 8 CF 00 07 32 00 47 00 00
 41.299214 1  310             Rx   d 8 0F 82 6B 83 A4 91 12 0C
 41.299722 1  310             Rx   d 8 1F 82 EA AF 8A AD B1 07
 41.300189 1  310             Rx   d 8 2F 02 29 63 7A C1 01 09
 41.300673 1  310             Rx   d 8 3F 82 26 EF B5 61 31 09
 41.301131 1  310             Rx   d 8 4F 02 22 C6 8E 65 31 05
 41.301516 1  310             Rx   d 8 5F 02 61 E6 94 15 41 05
 41.301918 1  310             Rx   d 8 6F 02 59 11 63 95 51 03
 41.498370 1  300             Rx   d 8 D0 00 07 32 00 47 00 00
 41.498812 1  310             Rx   d 8 00 82 2D 82 AA A5 B2 0C
 41.499181 1  310             Rx   d 8 10 02 68 E7 9A 31 41 05
 41.499574 1  310             Rx   d 8 20 02 A8 AD 8D AD 61 07
 41.500058 1  310             Rx   d 8 30 02 27 C5 92 95 71 05
 41.500435 1  310             Rx   d 8 40 82 25 63 79 C5 01 09
 41.500787 1  310             Rx   d 8 50 02 A5 F0 B4 2D E1 08
 41.501139 1  310             Rx   d 8 60 02 DA 98 7C D1 60 02
 41.698828 1  300             Rx   d 8 D1 00 07 32 00 47 00 00
 41.699648 1  310             Rx   d 8 01 82 2D 80 AC 99 A2 0C
 41.700491 1  310             Rx   d 8 11 82 28 61 79 A5 F1 08
 41.701032 1  310             Rx   d 8 21 82 66 AB 8A BD 51 07
 41.701540 1  310             Rx   d 8 31 82 25 EA 9B B1 A1 05
 41.701941 1  310             Rx   d 8 41 02 1F C7 92 E1 B1 05
 41.702343 1  310             Rx   d 8 51 02 9E 97 79 E5 90 02
 41.702736 1  310             Rx   d 8 61 82 5B F1 B3 19 E1 09
 41.898869 1  300             Rx   d 8 D2 00 07 32 00 46 00 00
 41.899631 1  310             Rx   d 8 02 82 AD 7E A3 B1 B2 0C
 41.900352 1  310             Rx   d 8 12 02 A5 EA 94 E1 61 05
 41.900860 1  310             Rx   d 8 22 82 24 A8 81 B9 F1 06
 41.901376 1  310             Rx   d 8 32 02 62 60 70 A9 C1 08
 41.901843 1  310             Rx   d 8 42 02 A2 CE 8B 79 E2 05
 41.902236 1  310             Rx   d 8 52 82 20 97 71 A9 B0 02
 41.902613 1  310             Rx   d 8 62 82 9E 2F 6A 2D C1 02
 42.050101 1  320             Rx   d 8 1B 00 00 0D 00 02 00 00
 42.098950 1  300             Rx   d 8 D3 00 07 32 00 47 00 00
 42.099753 1  310             Rx   d 8 03 82 AB 7B A0 AD E2 0C
 42.100605 1  310             Rx   d 8 13 02 6B C2 87 05 F2 05
 42.101129 1  310             Rx   d 8 23 02 AB A6 7B D1 E1 06
 42.101629 1  310             Rx   d 8 33 02 E9 E9 91 F1 11 06
 42.102096 1  310             Rx   d 8 43 82 E2 5E 6E A1 81 08
 42.102571 1  310             Rx   d 8 53 82 9B 94 6B D1 F0 02
 42.102981 1  310             Rx   d 8 63 02 DB 25 63 41 31 03
 42.299097 1  300             Rx   d 8 D4 00 06 32 00 47 00 00
 42.299834 1  310             Rx   d 8 04 82 6C C3 88 05 02 06
 42.300547 1  310             Rx   d 8 14 82 AC 78 A1 B9 22 0D
 42.301268 1  310             Rx   d 8 24 02 AC A4 7D F1 C1 06
 42.301784 1  310             Rx   d 8 34 02 AB E9 93 09 C2 05
 42.302284 1  310             Rx   d 8 44 02 61 D7 74 D1 B0 03
 42.302685 1  310             Rx   d 8 54 02 5F 5C 6E 89 01 09
 42.497630 1  300             Rx   d 8 D5 00 06 32 00 47 00 00
 42.498081 1  310             Rx   d 8 05 02 2D 76 A9 C9 D2 0C
 42.498458 1  310             Rx   d 8 15 02 6D C3 90 0D 52 06
 42.498835 1  310             Rx   d 8 25 82 2A E9 9B 19 52 06
 42.499220 1  310             Rx   d 8 35 82 69 A3 81 FD E1 06
 42.499613 1  310             Rx   d 8 45 02 A8 5A 72 8D B1 08
 42.500080 1  310             Rx   d 8 55 02 1A D8 7E D5 A0 03
 42.698875 1  300             Rx   d 8 D6 00 08 32 00 47 00 00
 42.699596 1  310             Rx   d 8 06 82 AC 72 A2 C5 32 0D
 42.700325 1  310             Rx   d 8 16 02 AC C4 90 31 82 06
 42.700825 1  310             Rx   d 8 26 82 E9 E8 9B 21 22 06
 42.701324 1  310             Rx   d 8 36 82 68 A2 7E 19 B2 06
 42.701808 1  310             Rx   d 8 46 82 A5 59 72 7D 81 08
 42.702209 1  310             Rx   d 8 56 82 DF 06 6C DD D0 03
 42.702569 1  310             Rx   d 8 66 82 5D D8 79 1D 21 03
 42.703004 1  310             Rx   d 8 76 82 DC F2 47 EA 70 11
 42.898686 1  300             Rx   d 8 D7 00 07 32 00 47 00 00
 42.899407 1  310             Rx   d 8 07 02 2D 70 AA DD B2 0D
 42.900054 1  310             Rx   d 8 17 82 2A C8 96 71 72 06
 42.900562 1  310             Rx   d 8 27 02 EA 9C 84 8D A1 06
 42.901062 1  310             Rx   d 8 37 02 68 E8 9C 21 42 06
 42.901553 1  310             Rx   d 8 47 82 E5 57 75 61 41 08
 42.902037 1  310             Rx   d 8 57 82 E1 EE 46 5A 71 0E
 42.902405 1  310             Rx   d 8 67 02 1A DC 71 DD 00 02
 43.050123 1  320             Rx   d 8 1C 00 00 10 00 02 00 00
 43.098866 1  300             Rx   d 8 D8 00 07 32 00 47 00 00
 43.099742 1  310             Rx   d 8 08 82 AC C7 95 4D A2 06
 43.100389 1  310             Rx   d 8 18 82 2B 6B A9 C9 B2 0D
 43.101135 1  310             Rx   d 8 28 82 A9 EA 28 EA F1 13
 43.101626 1  310             Rx   d 8 38 82 E8 9A 84 9D 71 06
 43.102036 1  310             Rx   d 8 48 82 28 E9 9C 19 42 06
 43.102421 1  310             Rx   d 8 58 82 20 57 73 69 31 08
 43.102814 1  310             Rx   d 8 68 02 1D AE 84 25 11 05
 43.298988 1  300             Rx   d 8 D9 00 09 32 00 47 00 00
 43.299726 1  310             Rx   d 8 09 02 6B C8 96 5D B2 06
 43.300446 1  310             Rx   d 8 19 82 6A 66 B0 E1 F2 0D
 43.300971 1  310             Rx   d 8 29 02 2A E7 14 52 42 14
 43.301438 1  310             Rx   d 8 39 82 E8 99 86 A1 21 06
 43.301896 1  310             Rx   d 8 49 82 E3 7F 89 CD B0 05
 43.302380 1  310             Rx   d 8 59 82 23 AD 83 3D D1 04
 43.302748 1  310             Rx   d 8 69 02 E3 E6 99 BD E1 05
 43.303142 1  310             Rx   d 8 79 02 DC 8A 6F BD A0 02
 43.497931 1  300             Rx   d 8 DA 00 06 32 00 47 00 00
 43.498455 1  310             Rx   d 8 0A 02 ED E3 0C C2 B2 13
 43.498914 1  310             Rx   d 8 1A 82 6C 61 A7 F5 32 0E
 43.499299 1  310             Rx   d 8 2A 82 AB C9 9A 71 52 07
 43.499643 1  310             Rx   d 8 3A 02 6A 97 84 81 51 06
 43.499995 1  310             Rx   d 8 4A 82 A7 AC 85 49 F1 04
 43.500347 1  310             Rx   d 8 5A 82 A3 7C 89 11 E1 05
 43.698381 1  300             Rx   d 8 DB 00 06 32 00 47 00 00
 43.699217 1  310             Rx   d 8 0B 02 ED E0 22 26 A3 17
 43.700093 1  310             Rx   d 8 1B 82 6B 5D A4 ED B2 0D
 43.700969 1  310             Rx   d 8 2B 02 A9 C9 98 65 32 07
 43.701502 1  310             Rx   d 8 3B 02 A7 95 83 6D 41 06
 43.702002 1  310             Rx   d 8 4B 82 A6 AD 84 85 31 05
 43.702469 1  310             Rx   d 8 5B 82 66 79 87 51 71 06
 43.898102 1  300             Rx   d 8 DC 00 05 32 00 47 00 00
 43.898634 1  310             Rx   d 8 0C 02 2D DE 1A 7A 83 16
 43.899142 1  310             Rx   d 8 1C 82 A7 59 A8 05 83 0D
 43.899626 1  310             Rx   d 8 2C 02 27 CA 9A 1D 42 07
 43.900117 1  310             Rx   d 8 3C 02 E6 93 84 51 F1 05
 43.900600 1  310             Rx   d 8 4C 82 E0 AF 86 C1 41 05
 44.050104 1  320             Rx   d 8 1C 00 00 0E 00 02 00 00
 44.098175 1  300             Rx   d 8 DD 00 06 32 00 47 00 00
 44.098871 1  310             Rx   d 8 0D 02 AE DB 15 CA F3 15
 44.099519 1  310             Rx   d 8 1D 82 2B 54 AA 09 F3 0D
 44.100026 1  310             Rx   d 8 2D 82 68 AE 8B 91 71 05
 44.100526 1  310             Rx   d 8 3D 02 A8 91 86 69 F1 05
 44.101010 1  310             Rx   d 8 4D 02 E6 76 8B 69 A1 05
 44.101493 1  310             Rx   d 8 5D 82 5F C9 9A B9 D1 06
 44.298191 1  300             Rx   d 8 DE 00 06 32 00 47 00 00
 44.298961 1  310             Rx   d 8 0E 82 EC D9 09 0A 34 14
 44.299665 1  310             Rx   d 8 1E 02 AC 4E AF 19 93 0E
 44.300386 1  310             Rx   d 8 2E 02 6B 90 86 65 E1 05
 44.300894 1  310             Rx   d 8 3E 02 E9 AF 8E 9D 91 05
 44.301386 1  310             Rx   d 8 4E 02 24 76 8C 6D E1 05
 44.301754 1  310             Rx   d 8 5E 02 9B 9D 7F 91 80 03
 44.497281 1  300             Rx   d 8 DF 00 06 32 00 47 00 00
 44.497707 1  310             Rx   d 8 0F 82 6D D7 FE 51 34 13
 44.498117 1  310             Rx   d 8 1F 02 AB 8F 87 51 A1 05
 44.498510 1  310             Rx   d 8 2F 02 AA B1 8F B1 A1 05
 44.498911 1  310             Rx   d 8 3F 02 A7 4A A8 3D F3 0D
 44.499305 1  310             Rx   d 8 4F 82 65 75 8B 61 F1 05
 44.499673 1  310             Rx   d 8 5F 02 A1 9D 7E B9 F0 03
 44.697125 1  300             Rx   d 8 E0 00 07 32 00 47 00 00
 44.697526 1  310             Rx   d 8 00 82 6D D5 00 92 04 13
 44.697895 1  310             Rx   d 8 10 82 AA 8E 87 55 C1 05
 44.698231 1  310             Rx   d 8 20 02 EA 44 A9 41 03 0E
 44.698575 1  310             Rx   d 8 30 02 A9 B3 92 BD E1 05
 44.698936 1  310             Rx   d 8 40 02 25 9E 81 C5 D0 03
 44.699320 1  310             Rx   d 8 50 82 64 74 8D 61 11 06
 44.699705 1  310             Rx   d 8 60 02 9C 22 7D F9 90 03
 44.898058 1  300             Rx   d 8 E1 00 07 32 00 47 00 00
 44.898951 1  310             Rx   d 8 01 02 EB 41 AC 8D 33 0E
 44.899672 1  310             Rx   d 8 11 82 EA D3 F8 BD 84 11
 44.900229 1  310             Rx   d 8 21 82 AA 8E 86 69 D1 05
 44.900639 1  310             Rx   d 8 31 02 68 74 8F 69 31 06
 44.901016 1  310             Rx   d 8 41 02 E5 B4 95 95 F1 05
 44.901409 1  310             Rx   d 8 51 82 A4 9F 84 F5 C0 03
 44.901819 1  310             Rx   d 8 61 02 DB E8 F1 1D F2 10
 45.050036 1  320             Rx   d 8 1C 00 00 0B 00 02 00 00
 45.097222 1  300             Rx   d 8 E2 00 07 32 00 47 00 00
 45.097656 1  310             Rx   d 8 02 02 ED 3C AA 61 43 0E
 45.098025 1  310             Rx   d 8 12 82 EA D2 F5 D9 64 11
 45.098418 1  310             Rx   d 8 22 02 AA 8F 82 4D 01 06
 45.098820 1  310             Rx   d 8 32 82 27 75 89 69 41 06
 45.099188 1  310             Rx   d 8 42 02 27 A2 81 11 E1 03
 45.099565 1  310             Rx   d 8 52 02 A1 52 6E C5 D1 07
 45.099942 1  310             Rx   d 8 62 82 5B B7 90 8D 11 06
 45.298328 1  300             Rx   d 8 E3 00 08 32 00 47 00 00
 45.298778 1  310             Rx   d 8 03 02 6C 3B A2 95 B3 0E
 45.299270 1  310             Rx   d 8 13 82 EB D2 F0 E1 44 11
 45.299704 1  310             Rx   d 8 23 82 EA 90 7D 59 F1 05
 45.300089 1  310             Rx   d 8 33 02 28 77 85 79 D1 06
 45.300466 1  310             Rx   d 8 43 82 65 57 6B 5D 61 07
 45.300851 1  310             Rx   d 8 53 02 A5 A5 7F 25 F1 03
 45.301236 1  310             Rx   d 8 63 02 5D 63 62 A1 10 03
 45.301613 1  310             Rx   d 8 73 02 5A 0F 68 89 B1 03
 45.497287 1  300             Rx   d 8 E4 00 08 32 00 47 00 00
 45.497729 1  310             Rx   d 8 04 02 EE D2 EB E1 94 11
 45.498106 1  310             Rx   d 8 14 82 2D 39 A5 B9 33 0F
 45.498491 1  310             Rx   d 8 24 82 6A 92 7E 55 E1 05
 45.498843 1  310             Rx   d 8 34 02 A9 A8 7E 25 21 04
 45.499196 1  310             Rx   d 8 44 82 65 58 6D 7D 01 08
 45.499572 1  310             Rx   d 8 54 82 63 78 8D 75 01 06
 45.499933 1  310             Rx   d 8 64 02 9D 65 65 CD 10 03
 45.500310 1  310             Rx   d 8 74 02 9A 86 6B BD 70 02
 45.697204 1  300             Rx   d 8 E5 00 07 32 00 47 00 00
 45.697745 1  310             Rx   d 8 05 02 2E D3 EB D9 64 11
 45.698351 1  310             Rx   d 8 15 82 2C 37 A7 E9 73 0F
 45.698843 1  310             Rx   d 8 25 02 EA 94 80 4D F1 05
 45.699310 1  310             Rx   d 8 35 02 E4 58 6F 91 61 08
 45.699768 1  310             Rx   d 8 45 82 62 AC 81 25 11 04
 45.700162 1  310             Rx   d 8 55 82 DF 7A 98 7D E1 04
 45.700571 1  310             Rx   d 8 65 82 DA 68 68 B5 20 03
 45.897073 1  300             Rx   d 8 E6 00 07 32 00 47 00 00
 45.897556 1  310             Rx   d 8 06 82 6D 35 A1 25 24 10
 45.897949 1  310             Rx   d 8 16 82 AC D3 E4 D1 E4 10
 45.898351 1  310             Rx   d 8 26 02 6A 97 7A 61 E1 05
 45.898719 1  310             Rx   d 8 36 02 A9 5A 69 C5 D1 08
 45.899096 1  310             Rx   d 8 46 82 E8 AF 7F 31 31 04
 45.899489 1  310             Rx   d 8 56 02 9E 7C 89 7D E1 06
 45.899891 1  310             Rx   d 8 66 82 5C 6B 64 C1 60 03
 46.049895 1  320             Rx   d 8 17 00 00 0B 00 02 00 00
 46.096859 1  300             Rx   d 8 E7 00 08 32 00 47 00 00
 46.097318 1  310             Rx   d 8 07 02 EE 32 9F 6D F4 10
 46.097703 1  310             Rx   d 8 17 02 EB D2 E0 BD E4 0F
 46.098088 1  310             Rx   d 8 27 02 28 99 7D 61 A1 05
 46.098490 1  310             Rx   d 8 37 02 67 5A 6A E1 D1 08
 46.098891 1  310             Rx   d 8 47 82 A5 B2 83 25 D1 03
