date Wed Oct 07 00:06:26.425 2026
base hex  timestamps absolute
internal events logged
Begin Triggerblock Wed Oct 07 00:08:18.642 2026
 0.000000 Start of measurement
 0.000000 1  300             Rx   d 8 00 00 00 00 00 00 00 04
 0.200868 1  300             Rx   d 8 01 00 00 32 00 00 00 04
 0.283181 1  300             Rx   d 8 02 00 00 32 00 7C 00 04
 0.439255 1  300             Rx   d 8 03 00 00 32 00 50 00 04
 0.638927 1  300             Rx   d 8 04 00 00 32 00 50 00 04
 0.839230 1  300             Rx   d 8 05 00 00 32 00 50 00 04
 1.038942 1  300             Rx   d 8 06 00 00 32 00 50 00 04
 1.050313 1  320             Rx   d 8 1B 00 00 0E 00 00 00 00
 1.238245 1  300             Rx   d 8 07 00 00 32 00 50 00 04
 1.438589 1  300             Rx   d 8 08 00 00 32 00 50 00 04
 1.637778 1  300             Rx   d 8 09 00 00 32 00 50 00 04
 1.838711 1  300             Rx   d 8 0A 00 00 32 00 50 00 04
 2.038440 1  300             Rx   d 8 0B 00 00 32 00 50 00 04
 2.050163 1  320             Rx   d 8 1B 00 00 0A 00 00 00 00
 2.238366 1  300             Rx   d 8 0C 00 00 32 00 50 00 04
 2.438382 1  300             Rx   d 8 0D 00 00 32 00 50 00 04
 2.638234 1  300             Rx   d 8 0E 00 00 32 00 50 00 04
 2.838839 1  300             Rx   d 8 0F 00 00 32 00 50 00 04
 3.038142 1  300             Rx   d 8 10 00 00 32 00 50 00 04
 3.050168 1  320             Rx   d 8 1D 00 00 09 00 00 00 00
 3.238003 1  300             Rx   d 8 11 00 00 32 00 50 00 04
 3.438174 1  300             Rx   d 8 12 00 00 32 00 50 00 04
 3.638002 1  300             Rx   d 8 13 00 00 32 00 50 00 04
 3.837690 1  300             Rx   d 8 14 00 00 32 00 50 00 04
 4.036805 1  300             Rx   d 8 15 00 00 32 00 50 00 04
 4.050117 1  320             Rx   d 8 1D 00 00 08 00 00 00 00
 4.237951 1  300             Rx   d 8 16 00 00 32 00 50 00 04
 4.437811 1  300             Rx   d 8 17 00 00 32 00 50 00 04
 4.637589 1  300             Rx   d 8 18 00 00 32 00 50 00 04
 4.837696 1  300             Rx   d 8 19 00 00 32 00 50 00 04
 5.036401 1  300             Rx   d 8 1A 00 00 32 00 00 00 04
 5.050024 1  320             Rx   d 8 1E 00 00 09 00 00 00 00
 5.237375 1  300             Rx   d 8 1B 00 00 32 00 50 00 04
 5.437809 1  300             Rx   d 8 1C 00 00 32 00 50 00 04
 5.636809 1  300             Rx   d 8 1D 00 00 32 00 50 00 04
 5.836571 1  300             Rx   d 8 1E 00 00 32 00 50 00 04
 6.036275 1  300             Rx   d 8 1F 00 00 32 00 00 00 04
 6.050005 1  320             Rx   d 8 1A 00 00 09 00 00 00 00
 6.237102 1  300             Rx   d 8 20 00 00 32 00 50 00 04
 6.436897 1  300             Rx   d 8 21 00 00 32 00 50 00 04
 6.635889 1  300             Rx   d 8 22 00 00 32 00 00 00 04
 6.836642 1  300             Rx   d 8 23 00 00 32 00 50 00 04
 7.036682 1  300             Rx   d 8 24 00 00 32 00 50 00 04
 7.049994 1  320             Rx   d 8 1C 00 00 0C 00 00 00 00
 7.235936 1  300             Rx   d 8 25 00 00 32 00 50 00 04
 7.436313 1  300             Rx   d 8 26 00 00 32 00 50 00 04
 7.635599 1  300             Rx   d 8 27 00 00 32 00 50 00 04
 7.836500 1  300             Rx   d 8 28 00 00 32 00 50 00 04
 8.036467 1  300             Rx   d 8 29 00 00 32 00 50 00 04
 8.050115 1  320             Rx   d 8 19 00 00 0C 00 00 00 00
 8.236556 1  300             Rx   d 8 2A 00 00 32 00 50 00 04
 8.436130 1  300             Rx   d 8 2B 00 00 32 00 50 00 04
 8.636080 1  300             Rx   d 8 2C 00 00 32 00 50 00 04
 8.835949 1  300             Rx   d 8 2D 00 00 32 00 50 00 04
 9.036112 1  300             Rx   d 8 2E 00 00 32 00 50 00 04
 9.050161 1  320             Rx   d 8 1C 00 00 0C 00 00 00 00
 9.235816 1  300             Rx   d 8 2F 00 00 32 00 50 00 04
 9.435816 1  300             Rx   d 8 30 00 00 32 00 50 00 04
 9.635734 1  300             Rx   d 8 31 00 00 32 00 50 00 04
 9.835569 1  300             Rx   d 8 32 00 00 32 00 50 00 04
 10.035561 1  300             Rx   d 8 33 00 00 32 00 50 00 04
 10.050232 1  320             Rx   d 8 1B 00 00 0A 00 00 00 00
 10.235593 1  300             Rx   d 8 34 00 00 32 00 50 00 04
 10.435461 1  300             Rx   d 8 35 00 00 32 00 50 00 04
 10.634723 1  300             Rx   d 8 36 00 00 32 00 50 00 04
 10.835313 1  300             Rx   d 8 37 00 00 32 00 50 00 04
 11.035156 1  300             Rx   d 8 38 00 00 32 00 50 00 04
 11.050205 1  320             Rx   d 8 1B 00 00 09 00 00 00 00
 11.235156 1  300             Rx   d 8 39 00 00 32 00 50 00 04
 11.434910 1  300             Rx   d 8 3A 00 00 32 00 50 00 04
 11.635106 1  300             Rx   d 8 3B 00 00 32 00 50 00 04
 11.835105 1  300             Rx   d 8 3C 00 00 32 00 50 00 04
 12.035105 1  300             Rx   d 8 3D 00 00 32 00 50 00 04
 12.050211 1  320             Rx   d 8 1C 00 00 09 00 00 00 00
 12.234105 1  300             Rx   d 8 3E 00 00 32 00 50 00 04
 12.433851 1  300             Rx   d 8 3F 00 00 32 00 50 00 04
 12.634530 1  300             Rx   d 8 40 00 00 32 00 50 00 04
 12.834587 1  300             Rx   d 8 41 00 00 32 00 50 00 04
 13.034562 1  300             Rx   d 8 42 00 00 32 00 50 00 04
 13.050216 1  320             Rx   d 8 1B 00 00 09 00 00 00 00
 13.234414 1  300             Rx   d 8 43 00 00 32 00 50 00 04
 13.434266 1  300             Rx   d 8 44 00 00 32 00 50 00 04
 13.634355 1  300             Rx   d 8 45 00 00 32 00 50 00 04
 13.834429 1  300             Rx   d 8 46 00 00 32 00 50 00 04
 14.034297 1  300             Rx   d 8 47 00 00 32 00 50 00 04
 14.050206 1  320             Rx   d 8 1C 00 00 09 00 00 00 00
 14.233960 1  300             Rx   d 8 48 00 00 32 00 50 00 04
 14.433788 1  300             Rx   d 8 49 00 00 32 00 50 00 04
 14.633943 1  300             Rx   d 8 4A 00 00 32 00 50 00 04
 14.833779 1  300             Rx   d 8 4B 00 00 32 00 50 00 04
 15.033532 1  300             Rx   d 8 4C 00 00 32 00 50 00 04
 15.050211 1  320             Rx   d 8 1A 00 00 0C 00 00 00 00
 15.233778 1  300             Rx   d 8 4D 00 00 32 00 50 00 04
 15.433572 1  300             Rx   d 8 4E 00 00 32 00 50 00 04
 15.633490 1  300             Rx   d 8 4F 00 00 32 00 50 00 04
 15.833530 1  300             Rx   d 8 50 00 00 32 00 50 00 04
 16.033505 1  300             Rx   d 8 51 00 00 32 00 50 00 04
 16.050209 1  320             Rx   d 8 1C 00 00 0C 00 00 00 00
 16.233341 1  300             Rx   d 8 52 00 00 32 00 50 00 04
 16.433250 1  300             Rx   d 8 53 00 00 32 00 50 00 04
 16.633152 1  300             Rx   d 8 54 00 00 32 00 50 00 04
 16.833331 1  300             Rx   d 8 55 00 00 32 00 50 00 04
 17.033011 1  300             Rx   d 8 56 00 00 32 00 50 00 04
 17.050223 1  320             Rx   d 8 1B 00 00 0C 00 00 00 00
 17.232175 1  300             Rx   d 8 57 00 00 32 00 00 00 04
 17.433002 1  300             Rx   d 8 58 00 00 32 00 50 00 04
 17.632756 1  300             Rx   d 8 59 00 00 32 00 50 00 04
 17.832936 1  300             Rx   d 8 5A 00 00 32 00 50 00 04
 18.032542 1  300             Rx   d 8 5B 00 00 32 00 50 00 04
 18.049925 1  320             Rx   d 8 1B 00 00 0A 00 00 00 00
 18.232172 1  300             Rx   d 8 5C 00 00 32 00 50 00 04
 18.432664 1  300             Rx   d 8 5D 00 00 32 00 50 00 04
 18.632573 1  300             Rx   d 8 5E 00 00 32 00 50 00 04
 18.832589 1  300             Rx   d 8 5F 00 00 32 00 50 00 04
 19.031900 1  300             Rx   d 8 60 00 00 32 00 50 00 04
 19.050160 1  320             Rx   d 8 1B 00 00 09 00 00 00 00
 19.231449 1  300             Rx   d 8 61 00 00 32 00 50 00 04
 19.432284 1  300             Rx   d 8 62 00 00 32 00 50 00 04
 19.632120 1  300             Rx   d 8 63 00 00 32 00 50 00 04
 19.831972 1  300             Rx   d 8 64 00 00 32 00 50 00 04
 20.031283 1  300             Rx   d 8 65 00 00 32 00 50 00 04
 20.050084 1  320             Rx   d 8 1B 00 00 09 00 00 00 00
 20.231193 1  300             Rx   d 8 66 00 00 32 00 50 00 04
 20.431397 1  300             Rx   d 8 67 00 00 32 00 50 00 04
 20.631691 1  300             Rx   d 8 68 00 00 32 00 50 00 04
 20.831805 1  300             Rx   d 8 69 00 00 32 00 50 00 04
 21.031469 1  300             Rx   d 8 6A 00 00 32 00 50 00 04
 21.050180 1  320             Rx   d 8 1A 00 00 09 00 00 00 00
 21.230813 1  300             Rx   d 8 6B 00 00 32 00 50 00 04
 21.431542 1  300             Rx   d 8 6C 00 00 32 00 50 00 04
 21.630656 1  300             Rx   d 8 6D 00 00 32 00 00 00 04
 21.831459 1  300             Rx   d 8 6E 00 00 32 00 50 00 04
 22.030639 1  300             Rx   d 8 6F 00 00 32 00 00 00 04
 22.050013 1  320             Rx   d 8 18 00 00 09 00 00 00 00
 22.230450 1  300             Rx   d 8 70 00 00 32 00 50 00 04
 22.430974 1  300             Rx   d 8 71 00 00 32 00 50 00 04
 22.630834 1  300             Rx   d 8 72 00 00 32 00 50 00 04
 22.831440 1  300             Rx   d 8 73 00 00 32 00 50 00 04
 23.030874 1  300             Rx   d 8 74 00 00 32 00 50 00 04
 23.050011 1  320             Rx   d 8 1A 00 00 0D 00 00 00 00
 23.230767 1  300             Rx   d 8 75 00 00 32 00 50 00 04
 23.430676 1  300             Rx   d 8 76 00 00 32 00 50 00 04
 23.629799 1  300             Rx   d 8 77 00 00 32 00 50 00 04
 23.830462 1  300             Rx   d 8 78 00 00 32 00 50 00 04
 24.030470 1  300             Rx   d 8 79 00 00 32 00 50 00 04
 24.050164 1  320             Rx   d 8 19 00 00 0E 00 00 00 00
 24.230355 1  300             Rx   d 8 7A 00 00 32 00 50 00 04
 24.430330 1  300             Rx   d 8 7B 00 00 32 00 50 00 04
 24.630182 1  300             Rx   d 8 7C 00 00 32 00 50 00 04
 24.830190 1  300             Rx   d 8 7D 00 00 32 00 50 00 04
 25.030123 1  300             Rx   d 8 7E 00 00 32 00 50 00 04
 25.050128 1  320             Rx   d 8 1B 00 00 0A 00 00 00 00
 25.230049 1  300             Rx   d 8 7F 00 00 32 00 50 00 04
 25.429877 1  300             Rx   d 8 80 00 00 32 00 50 00 04
 25.629852 1  300             Rx   d 8 81 00 00 32 00 50 00 04
 25.829171 1  300             Rx   d 8 82 00 00 32 00 50 00 04
 26.029662 1  300             Rx   d 8 83 00 00 32 00 50 00 04
 26.050093 1  320             Rx   d 8 1A 00 00 09 00 00 00 00
 26.229039 1  300             Rx   d 8 84 00 00 32 00 00 00 04
 26.429497 1  300             Rx   d 8 85 00 00 32 00 50 00 04
 26.629096 1  300             Rx   d 8 86 00 00 32 00 50 00 04
 26.828825 1  300             Rx   d 8 87 00 00 32 00 00 00 04
 27.029414 1  300             Rx   d 8 88 00 00 32 00 50 00 04
 27.050115 1  320             Rx   d 8 15 00 00 09 00 00 00 00
 27.229315 1  300             Rx   d 8 89 00 00 32 00 50 00 04
 27.429044 1  300             Rx   d 8 8A 00 00 32 00 50 00 04
 27.629380 1  300             Rx   d 8 8B 00 00 32 00 50 00 04
 27.828617 1  300             Rx   d 8 8C 00 00 32 00 00 00 04
 28.029198 1  300             Rx   d 8 8D 00 00 32 00 50 00 04
 28.050129 1  320             Rx   d 8 1A 00 00 09 00 00 00 00
 28.228862 1  300             Rx   d 8 8E 00 00 32 00 50 00 04
 28.428796 1  300             Rx   d 8 8F 00 00 32 00 50 00 04
 28.628525 1  300             Rx   d 8 90 00 00 32 00 00 00 04
 28.828647 1  300             Rx   d 8 91 00 00 32 00 50 00 04
 29.028786 1  300             Rx   d 8 92 00 00 32 00 50 00 04
 29.050135 1  320             Rx   d 8 1A 00 00 09 00 00 00 00
 29.228540 1  300             Rx   d 8 93 00 00 32 00 50 00 04
 29.428605 1  300             Rx   d 8 94 00 00 32 00 50 00 04
 29.628588 1  300             Rx   d 8 95 00 00 32 00 50 00 04
 29.828473 1  300             Rx   d 8 96 00 00 32 00 50 00 04
 30.027776 1  300             Rx   d 8 97 00 00 32 00 00 00 04
 30.050075 1  320             Rx   d 8 1B 00 00 0C 00 00 00 00
 30.228374 1  300             Rx   d 8 98 00 00 32 00 50 00 04
 30.428201 1  300             Rx   d 8 99 00 00 32 00 50 00 04
 30.628110 1  300             Rx   d 8 9A 00 00 32 00 50 00 04
 30.828077 1  300             Rx   d 8 9B 00 00 32 00 50 00 04
 31.027913 1  300             Rx   d 8 9C 00 00 32 00 50 00 04
 31.049810 1  320             Rx   d 8 1A 00 00 0C 00 00 00 00
 31.227052 1  300             Rx   d 8 9D 00 00 32 00 50 00 04
 31.427093 1  300             Rx   d 8 9E 00 00 32 00 50 00 04
 31.627616 1  300             Rx   d 8 9F 00 00 32 00 50 00 04
 31.827141 1  300             Rx   d 8 A0 00 00 32 00 50 00 04
 32.027533 1  300             Rx   d 8 A1 00 00 32 00 50 00 04
 32.050061 1  320             Rx   d 8 16 00 00 0C 00 00 00 00
 32.227713 1  300             Rx   d 8 A2 00 00 32 00 50 00 04
 32.427590 1  300             Rx   d 8 A3 00 00 32 00 50 00 04
 32.627696 1  300             Rx   d 8 A4 00 00 32 00 51 00 04
 32.827179 1  300             Rx   d 8 A5 00 00 32 00 50 00 04
 33.026646 1  300             Rx   d 8 A6 00 00 32 00 50 00 04
 33.050050 1  320             Rx   d 8 1B 00 00 0A 00 00 00 00
 33.226637 1  300             Rx   d 8 A7 00 00 32 00 50 00 04
 33.426473 1  300             Rx   d 8 A8 00 00 32 00 00 00 04
 33.627455 1  300             Rx   d 8 A9 00 00 32 00 51 00 04
 33.826357 1  300             Rx   d 8 AA 00 00 32 00 50 00 04
 34.027020 1  300             Rx   d 8 AB 00 00 32 00 50 00 04
 34.050048 1  320             Rx   d 8 16 00 00 09 00 00 00 00
 34.226979 1  300             Rx   d 8 AC 00 00 32 00 50 00 04
 34.426552 1  300             Rx   d 8 AD 00 00 32 00 50 00 04
 34.626576 1  300             Rx   d 8 AE 00 00 32 00 50 00 04
 34.826682 1  300             Rx   d 8 AF 00 00 32 00 50 00 04
 35.026346 1  300             Rx   d 8 B0 00 00 32 00 50 00 04
 35.050095 1  320             Rx   d 8 1A 00 00 08 00 00 00 00
 35.226231 1  300             Rx   d 8 B1 00 00 32 00 50 00 04
 35.426173 1  300             Rx   d 8 B2 00 00 32 00 50 00 04
 35.626517 1  300             Rx   d 8 B3 00 00 32 00 51 00 04
 35.825590 1  300             Rx   d 8 B4 00 00 32 00 50 00 04
 36.025549 1  300             Rx   d 8 B5 00 00 32 00 00 00 04
 36.050108 1  320             Rx   d 8 19 00 00 09 00 00 00 00
 36.226064 1  300             Rx   d 8 B6 00 00 32 00 50 00 04
 36.424876 1  300             Rx   d 8 B7 00 00 32 00 50 00 04
 36.626375 1  300             Rx   d 8 B8 00 00 32 00 51 00 04
 36.825760 1  300             Rx   d 8 B9 00 00 32 00 50 00 04
 37.025972 1  300             Rx   d 8 BA 00 00 32 00 50 00 04
 37.050081 1  320             Rx   d 8 1A 00 00 08 00 00 00 00
 37.225791 1  300             Rx   d 8 BB 00 00 32 00 50 00 04
 37.425316 1  300             Rx   d 8 BC 00 00 32 00 50 00 04
 37.625815 1  300             Rx   d 8 BD 00 00 32 00 51 00 04
 37.825470 1  300             Rx   d 8 BE 00 00 32 00 50 00 04
 38.025544 1  300             Rx   d 8 BF 00 00 32 00 50 00 04
 38.050013 1  320             Rx   d 8 1B 00 00 0C 00 00 00 00
 38.225494 1  300             Rx   d 8 C0 00 00 32 00 50 00 04
 38.425412 1  300             Rx   d 8 C1 00 00 32 00 50 00 04
 38.625600 1  300             Rx   d 8 C2 00 00 32 00 51 00 04
 38.825312 1  300             Rx   d 8 C3 00 00 32 00 50 00 04
 39.024902 1  300             Rx   d 8 C4 00 00 32 00 50 00 04
 39.050052 1  320             Rx   d 8 1C 00 00 0E 00 00 00 00
 39.225164 1  300             Rx   d 8 C5 00 00 32 00 50 00 04
 39.425057 1  300             Rx   d 8 C6 00 00 32 00 50 00 04
 39.625310 1  300             Rx   d 8 C7 00 00 32 00 51 00 04
 39.824974 1  300             Rx   d 8 C8 00 00 32 00 50 00 04
 40.024637 1  300             Rx   d 8 C9 00 00 32 00 50 00 04
 40.050041 1  320             Rx   d 8 1C 00 00 0B 00 00 00 00
 40.224768 1  300             Rx   d 8 CA 00 00 32 00 50 00 04
 40.424579 1  300             Rx   d 8 CB 00 00 32 00 50 00 04
 40.624923 1  300             Rx   d 8 CC 00 00 32 00 50 00 04
 40.824480 1  300             Rx   d 8 CD 00 00 32 00 50 00 04
 41.024438 1  300             Rx   d 8 CE 00 00 32 00 50 00 04
 41.050038 1  320             Rx   d 8 1C 00 00 09 00 00 00 00
 41.224389 1  300             Rx   d 8 CF 00 00 32 00 50 00 04
 41.424241 1  300             Rx   d 8 D0 00 00 32 00 50 00 04
 41.624593 1  300             Rx   d 8 D1 00 01 32 00 51 00 04
 41.625412 1  310             Rx   d 8 01 01 E2 8E 53 B8 D1 02
 41.824084 1  300             Rx   d 8 D2 00 00 32 00 50 00 04
 42.024084 1  300             Rx   d 8 D3 00 00 32 00 50 00 04
 42.050036 1  320             Rx   d 8 1C 00 00 09 00 00 00 00
 42.223960 1  300             Rx   d 8 D4 00 00 32 00 50 00 04
 42.423959 1  300             Rx   d 8 D5 00 00 32 00 50 00 04
 42.624221 1  300             Rx   d 8 D6 00 00 32 00 51 00 04
 42.823696 1  300             Rx   d 8 D7 00 00 32 00 50 00 04
 43.023729 1  300             Rx   d 8 D8 00 00 32 00 50 00 04
 43.050033 1  320             Rx   d 8 1C 00 00 09 00 00 00 00
 43.223531 1  300             Rx   d 8 D9 00 00 32 00 50 00 04
 43.422933 1  300             Rx   d 8 DA 00 00 32 00 00 00 04
 43.623563 1  300             Rx   d 8 DB 00 00 32 00 00 00 04
 43.823432 1  300             Rx   d 8 DC 00 00 32 00 50 00 04
 44.023300 1  300             Rx   d 8 DD 00 00 32 00 50 00 04
 44.050072 1  320             Rx   d 8 1C 00 00 09 00 00 00 00
 44.223259 1  300             Rx   d 8 DE 00 00 32 00 50 00 04
 44.422193 1  300             Rx   d 8 DF 00 00 32 00 50 00 04
 44.623290 1  300             Rx   d 8 E0 00 00 32 00 50 00 04
 44.822864 1  300             Rx   d 8 E1 00 00 32 00 50 00 04
 45.022552 1  300             Rx   d 8 E2 00 01 32 00 00 00 04
 45.023380 1  310             Rx   d 8 02 01 D3 78 D7 E0 C0 01
 45.049946 1  320             Rx   d 8 1B 00 00 0A 00 00 00 00
 45.222822 1  300             Rx   d 8 E3 00 00 32 00 50 00 04
 45.422920 1  300             Rx   d 8 E4 00 01 32 00 50 00 04
 45.423886 1  310             Rx   d 8 04 81 55 77 D6 14 F1 01
 45.622993 1  300             Rx   d 8 E5 00 01 32 00 50 00 04
 45.623902 1  310             Rx   d 8 05 01 9A 75 CC 1C F1 01
 45.822763 1  300             Rx   d 8 E6 00 00 32 00 50 00 04
 46.022754 1  300             Rx   d 8 E7 00 01 32 00 50 00 04
 46.023680 1  310             Rx   d 8 07 01 19 74 A4 34 21 02
 46.049960 1  320             Rx   d 8 1C 00 00 0C 00 00 00 00
 46.222131 1  300             Rx   d 8 E8 00 00 32 00 50 00 04
 46.421877 1  300             Rx   d 8 E9 00 01 32 00 50 00 04
 46.422573 1  310             Rx   d 8 09 00 92 F6 15 70 40 02
 46.622442 1  300             Rx   d 8 EA 00 00 32 00 51 00 04
 46.822187 1  300             Rx   d 8 EB 00 00 32 00 50 00 04
 47.022408 1  300             Rx   d 8 EC 00 00 32 00 50 00 04
 47.050031 1  320             Rx   d 8 19 00 00 0C 00 00 00 00
 47.222383 1  300             Rx   d 8 ED 00 00 32 00 50 00 04
 47.422243 1  300             Rx   d 8 EE 00 01 32 00 50 00 04
 47.423169 1  310             Rx   d 8 0E 81 57 65 20 EC 51 03
 47.622931 1  300             Rx   d 8 EF 00 00 32 00 51 00 04
 47.821906 1  300             Rx   d 8 F0 00 00 32 00 50 00 04
 48.021668 1  300             Rx   d 8 F1 00 00 32 00 50 00 04
 48.049996 1  320             Rx   d 8 1A 00 00 0C 00 00 00 00
 48.221897 1  300             Rx   d 8 F2 00 00 32 00 50 00 04
 48.421847 1  300             Rx   d 8 F3 00 00 32 00 50 00 04
 48.621969 1  300             Rx   d 8 F4 00 00 32 00 51 00 04
 48.821420 1  300             Rx   d 8 F5 00 00 32 00 50 00 04
 49.021788 1  300             Rx   d 8 F6 00 00 32 00 50 00 04
 49.049887 1  320             Rx   d 8 1C 00 00 09 00 00 00 00
 49.221288 1  300             Rx   d 8 F7 00 00 32 00 50 00 04
 49.421550 1  300             Rx   d 8 F8 00 00 32 00 50 00 04
 49.621778 1  300             Rx   d 8 F9 00 00 32 00 51 00 04
 49.821237 1  300             Rx   d 8 FA 00 00 32 00 50 00 04
 50.021368 1  300             Rx   d 8 FB 00 00 32 00 50 00 04
 50.049999 1  320             Rx   d 8 1B 00 00 09 00 00 00 00
 50.221113 1  300             Rx   d 8 FC 00 00 32 00 50 00 04
 50.420556 1  300             Rx   d 8 FD 00 01 32 00 50 00 04
 50.421293 1  310             Rx   d 8 0D 81 19 55 58 5C D1 02
 50.620457 1  300             Rx   d 8 FE 00 00 32 00 51 00 04
 50.820940 1  300             Rx   d 8 FF 00 00 32 00 50 00 04
 51.020915 1  300             Rx   d 8 00 01 00 32 00 50 00 04
 51.049972 1  320             Rx   d 8 1C 00 00 08 00 00 00 00
 51.220685 1  300             Rx   d 8 01 01 00 32 00 50 00 04
 51.420906 1  300             Rx   d 8 02 01 00 32 00 50 00 04
 51.620119 1  300             Rx   d 8 03 01 00 32 00 50 00 04
 51.820487 1  300             Rx   d 8 04 01 00 32 00 50 00 04
 52.020355 1  300             Rx   d 8 05 01 00 32 00 50 00 04
 52.049740 1  320             Rx   d 8 1B 00 00 08 00 00 00 00
 52.220838 1  300             Rx   d 8 06 01 00 32 00 50 00 04
 52.420280 1  300             Rx   d 8 07 01 00 32 00 50 00 04
 52.619526 1  300             Rx   d 8 08 01 00 32 00 50 00 04
 52.820328 1  300             Rx   d 8 09 01 00 32 00 50 00 04
 53.019968 1  300             Rx   d 8 0A 01 00 32 00 50 00 04
 53.049950 1  320             Rx   d 8 1B 00 00 09 00 00 00 00
 53.220106 1  300             Rx   d 8 0B 01 00 32 00 50 00 04
 53.419278 1  300             Rx   d 8 0C 01 00 32 00 50 00 04
 53.619507 1  300             Rx   d 8 0D 01 00 32 00 00 00 04
 53.819826 1  300             Rx   d 8 0E 01 00 32 00 50 00 04
 54.019613 1  300             Rx   d 8 0F 01 00 32 00 50 00 04
 54.049939 1  320             Rx   d 8 1A 00 00 0B 00 00 00 00
 54.219809 1  300             Rx   d 8 10 01 00 32 00 50 00 04
 54.419227 1  300             Rx   d 8 11 01 00 32 00 50 00 04
 54.619914 1  300             Rx   d 8 12 01 00 32 00 51 00 04
 54.819602 1  300             Rx   d 8 13 01 00 32 00 50 00 04
 55.019291 1  300             Rx   d 8 14 01 00 32 00 50 00 04
 55.049953 1  320             Rx   d 8 1B 00 00 0C 00 00 00 00
 55.219388 1  300             Rx   d 8 15 01 00 32 00 50 00 04
 55.419363 1  300             Rx   d 8 16 01 00 32 00 50 00 04
 55.619887 1  300             Rx   d 8 17 01 00 32 00 51 00 04
 55.818953 1  300             Rx   d 8 18 01 00 32 00 50 00 04
 56.018379 1  300             Rx   d 8 19 01 00 32 00 00 00 04
 56.049959 1  320             Rx   d 8 1B 00 00 0C 00 00 00 00
 56.218911 1  300             Rx   d 8 1A 01 00 32 00 50 00 04
 56.418878 1  300             Rx   d 8 1B 01 00 32 00 50 00 04
 56.618869 1  300             Rx   d 8 1C 01 00 32 00 00 00 04
 56.818631 1  300             Rx   d 8 1D 01 00 32 00 50 00 04
 57.018827 1  300             Rx   d 8 1E 01 00 32 00 50 00 04
 57.049973 1  320             Rx   d 8 1B 00 00 09 00 00 00 00
 57.218753 1  300             Rx   d 8 1F 01 00 32 00 50 00 04
 57.417351 1  300             Rx   d 8 20 01 00 32 00 50 00 04
 57.618948 1  300             Rx   d 8 21 01 00 32 00 51 00 04
 57.818341 1  300             Rx   d 8 22 01 00 32 00 50 00 04
 58.018259 1  300             Rx   d 8 23 01 00 32 00 50 00 04
 58.049929 1  320             Rx   d 8 1B 00 00 08 00 00 00 00
 58.218250 1  300             Rx   d 8 24 01 00 32 00 50 00 04
 58.417283 1  300             Rx   d 8 25 01 00 32 00 50 00 04
 58.618217 1  300             Rx   d 8 26 01 00 32 00 51 00 04
 58.817192 1  300             Rx   d 8 27 01 00 32 00 50 00 04
 59.017765 1  300             Rx   d 8 28 01 00 32 00 50 00 04
 59.049673 1  320             Rx   d 8 19 00 00 08 00 00 00 00
 59.217699 1  300             Rx   d 8 29 01 00 32 00 50 00 04
 59.417887 1  300             Rx   d 8 2A 01 00 32 00 50 00 04
 59.617321 1  300             Rx   d 8 2B 01 00 32 00 51 00 04
 59.817550 1  300             Rx   d 8 2C 01 00 32 00 50 00 04
 60.017705 1  300             Rx   d 8 2D 01 00 32 00 50 00 04
 60.049826 1  320             Rx   d 8 1A 00 00 08 00 00 00 00
 60.217532 1  300             Rx   d 8 2E 01 00 32 00 50 00 04
 60.417253 1  300             Rx   d 8 2F 01 00 32 00 50 00 04
 60.617441 1  300             Rx   d 8 30 01 00 32 00 50 00 04
 60.817064 1  300             Rx   d 8 31 01 00 32 00 50 00 04
 61.017407 1  300             Rx   d 8 32 01 00 32 00 50 00 04
 61.049905 1  320             Rx   d 8 1A 00 00 0A 00 00 00 00
 61.216457 1  300             Rx   d 8 33 01 00 32 00 50 00 04
 61.416325 1  300             Rx   d 8 34 01 00 32 00 50 00 04
 61.617562 1  300             Rx   d 8 35 01 00 32 00 51 00 04
 61.816922 1  300             Rx   d 8 36 01 00 32 00 50 00 04
 62.016627 1  300             Rx   d 8 37 01 00 32 00 50 00 04
 62.049640 1  320             Rx   d 8 1A 00 00 0B 00 00 00 00
 62.216856 1  300             Rx   d 8 38 01 00 32 00 50 00 04
 62.416585 1  300             Rx   d 8 39 01 00 32 00 50 00 04
 62.617100 1  300             Rx   d 8 3A 01 00 32 00 51 00 04
 62.816510 1  300             Rx   d 8 3B 01 00 32 00 50 00 04
 63.016575 1  300             Rx   d 8 3C 01 00 32 00 50 00 04
 63.049867 1  320             Rx   d 8 1A 00 00 0D 00 00 00 00
 63.216542 1  300             Rx   d 8 3D 01 00 32 00 50 00 04
 63.416320 1  300             Rx   d 8 3E 01 00 32 00 50 00 04
 63.616410 1  300             Rx   d 8 3F 01 00 32 00 50 00 04
 63.816245 1  300             Rx   d 8 40 01 00 32 00 50 00 04
 64.016220 1  300             Rx   d 8 41 01 00 32 00 50 00 04
 64.049889 1  320             Rx   d 8 1C 00 00 09 00 00 00 00
 64.216121 1  300             Rx   d 8 42 01 00 32 00 50 00 04
 64.416039 1  300             Rx   d 8 43 01 00 32 00 50 00 04
 64.616440 1  300             Rx   d 8 44 01 00 32 00 51 00 04
 64.815858 1  300             Rx   d 8 45 01 00 32 00 50 00 04
 65.015882 1  300             Rx   d 8 46 01 00 32 00 50 00 04
 65.049879 1  320             Rx   d 8 1C 00 00 09 00 00 00 00
 65.215701 1  300             Rx   d 8 47 01 00 32 00 50 00 04
 65.415651 1  300             Rx   d 8 48 01 00 32 00 50 00 04
 65.615282 1  300             Rx   d 8 49 01 00 32 00 00 00 04
 65.815552 1  300             Rx   d 8 4A 01 00 32 00 50 00 04
 66.015519 1  300             Rx   d 8 4B 01 00 32 00 50 00 04
 66.049909 1  320             Rx   d 8 1C 00 00 08 00 00 00 00
 66.214609 1  300             Rx   d 8 4C 01 00 32 00 00 00 04
 66.414551 1  300             Rx   d 8 4D 01 00 32 00 50 00 04
 66.615484 1  300             Rx   d 8 4E 01 00 32 00 51 00 04
 66.814411 1  300             Rx   d 8 4F 01 00 32 00 00 00 04
 67.014967 1  300             Rx   d 8 50 01 00 32 00 50 00 04
 67.049857 1  320             Rx   d 8 15 00 00 08 00 00 00 00
 67.215131 1  300             Rx   d 8 51 01 00 32 00 50 00 04
 67.413828 1  300             Rx   d 8 52 01 00 32 00 50 00 04
 67.614564 1  300             Rx   d 8 53 01 00 32 00 00 00 04
 67.814441 1  300             Rx   d 8 54 01 00 32 00 50 00 04
 68.014785 1  300             Rx   d 8 55 01 00 32 00 50 00 04
 68.049855 1  320             Rx   d 8 1A 00 00 08 00 00 00 00
 68.214743 1  300             Rx   d 8 56 01 00 32 00 50 00 04
 68.413997 1  300             Rx   d 8 57 01 00 32 00 50 00 04
 68.614971 1  300             Rx   d 8 58 01 00 32 00 00 00 04
 68.814348 1  300             Rx   d 8 59 01 00 32 00 50 00 04
 69.014676 1  300             Rx   d 8 5A 01 00 32 00 50 00 04
 69.049852 1  320             Rx   d 8 1A 00 00 0B 00 00 00 00
 69.214634 1  300             Rx   d 8 5B 01 00 32 00 50 00 04
 69.414289 1  300             Rx   d 8 5C 01 00 32 00 50 00 04
 69.614739 1  300             Rx   d 8 5D 01 00 32 00 51 00 04
 69.813387 1  300             Rx   d 8 5E 01 00 32 00 00 00 04
 70.013968 1  300             Rx   d 8 5F 01 00 32 00 50 00 04
 70.049833 1  320             Rx   d 8 1C 00 00 0B 00 00 00 00
 70.213968 1  300             Rx   d 8 60 01 00 32 00 50 00 04
 70.413246 1  300             Rx   d 8 61 01 00 32 00 50 00 04
 70.614057 1  300             Rx   d 8 62 01 00 32 00 51 00 04
 70.813581 1  300             Rx   d 8 63 01 00 32 00 50 00 04
 71.013540 1  300             Rx   d 8 64 01 00 32 00 50 00 04
 71.049839 1  320             Rx   d 8 1A 00 00 0C 00 00 00 00
 71.213621 1  300             Rx   d 8 65 01 00 32 00 50 00 04
 71.413539 1  300             Rx   d 8 66 01 00 32 00 50 00 04
 71.613825 1  300             Rx   d 8 67 01 00 32 00 51 00 04
 71.813530 1  300             Rx   d 8 68 01 00 32 00 50 00 04
 72.013333 1  300             Rx   d 8 69 01 00 32 00 50 00 04
 72.049861 1  320             Rx   d 8 1C 00 00 08 00 00 00 00
 72.213398 1  300             Rx   d 8 6A 01 00 32 00 50 00 04
 72.413274 1  300             Rx   d 8 6B 01 00 32 00 50 00 04
 72.613397 1  300             Rx   d 8 6C 01 00 32 00 51 00 04
 72.813118 1  300             Rx   d 8 6D 01 00 32 00 50 00 04
 73.013019 1  300             Rx   d 8 6E 01 00 32 00 50 00 04
 73.049866 1  320             Rx   d 8 1C 00 00 09 00 00 00 00
 73.212805 1  300             Rx   d 8 6F 01 00 32 00 50 00 04
 73.412854 1  300             Rx   d 8 70 01 00 32 00 50 00 04
 73.613205 1  300             Rx   d 8 71 01 00 32 00 51 00 04
 73.812746 1  300             Rx   d 8 72 01 00 32 00 50 00 04
 74.012672 1  300             Rx   d 8 73 01 00 32 00 50 00 04
 74.049847 1  320             Rx   d 8 1C 00 00 08 00 00 00 00
 74.212614 1  300             Rx   d 8 74 01 00 32 00 50 00 04
 74.412311 1  300             Rx   d 8 75 01 00 32 00 50 00 04
 74.612957 1  300             Rx   d 8 76 01 00 32 00 51 00 04
 74.812424 1  300             Rx   d 8 77 01 00 32 00 50 00 04
 75.012227 1  300             Rx   d 8 78 01 00 32 00 50 00 04
 75.049599 1  320             Rx   d 8 1C 00 00 08 00 00 00 00
 75.211973 1  300             Rx   d 8 79 01 00 32 00 50 00 04
 75.411284 1  300             Rx   d 8 7A 01 00 32 00 50 00 04
 75.612086 1  300             Rx   d 8 7B 01 00 32 00 51 00 04
 75.812094 1  300             Rx   d 8 7C 01 00 32 00 50 00 04
 76.011954 1  300             Rx   d 8 7D 01 00 32 00 50 00 04
 76.049736 1  320             Rx   d 8 1A 00 00 09 00 00 00 00
 76.211004 1  300             Rx   d 8 7E 01 00 32 00 50 00 04
 76.411527 1  300             Rx   d 8 7F 01 00 32 00 50 00 04
 76.612485 1  300             Rx   d 8 80 01 00 32 00 51 00 04
 76.811510 1  300             Rx   d 8 81 01 00 32 00 50 00 04
 77.011624 1  300             Rx   d 8 82 01 00 32 00 50 00 04
 77.049815 1  320             Rx   d 8 1B 00 00 0C 00 00 00 00
 77.210509 1  300             Rx   d 8 83 01 00 32 00 00 00 04
 77.411123 1  300             Rx   d 8 84 01 00 32 00 50 00 04
 77.611442 1  300             Rx   d 8 85 01 00 32 00 50 00 04
 77.811212 1  300             Rx   d 8 86 01 00 32 00 50 00 04
 78.011400 1  300             Rx   d 8 87 01 00 32 00 50 00 04
 78.049804 1  320             Rx   d 8 1A 00 00 0A 00 00 00 00
 78.210417 1  300             Rx   d 8 88 01 00 32 00 50 00 04
 78.410416 1  300             Rx   d 8 89 01 00 32 00 00 00 04
 78.611071 1  300             Rx   d 8 8A 01 00 32 00 50 00 04
 78.810882 1  300             Rx   d 8 8B 01 00 32 00 50 00 04
 79.010792 1  300             Rx   d 8 8C 01 00 32 00 50 00 04
 79.049793 1  320             Rx   d 8 1C 00 00 0C 00 00 00 00
 79.210725 1  300             Rx   d 8 8D 01 00 32 00 50 00 04
 79.410594 1  300             Rx   d 8 8E 01 00 32 00 50 00 04
 79.610520 1  300             Rx   d 8 8F 01 00 32 00 50 00 04
 79.810527 1  300             Rx   d 8 90 01 00 32 00 50 00 04
 80.010469 1  300             Rx   d 8 91 01 00 32 00 50 00 04
 80.049799 1  320             Rx   d 8 1D 00 00 09 00 00 00 00
 80.210387 1  300             Rx   d 8 92 01 00 32 00 50 00 04
 80.410411 1  300             Rx   d 8 93 01 00 32 00 50 00 04
 80.610189 1  300             Rx   d 8 94 01 00 32 00 50 00 04
 80.809591 1  300             Rx   d 8 95 01 00 32 00 00 00 04
 81.009852 1  300             Rx   d 8 96 01 00 32 00 50 00 04
 81.049715 1  320             Rx   d 8 1C 00 00 08 00 00 00 00
 81.209377 1  300             Rx   d 8 97 01 00 32 00 00 00 04
 81.409819 1  300             Rx   d 8 98 01 00 32 00 50 00 04
 81.609974 1  300             Rx   d 8 99 01 00 32 00 50 00 04
 81.809777 1  300             Rx   d 8 9A 01 00 32 00 50 00 04
 82.009596 1  300             Rx   d 8 9B 01 00 32 00 50 00 04
 82.049688 1  320             Rx   d 8 1C 00 00 08 00 00 00 00
 82.209620 1  300             Rx   d 8 9C 01 00 32 00 50 00 04
 82.409423 1  300             Rx   d 8 9D 01 00 32 00 50 00 04
 82.609594 1  300             Rx   d 8 9E 01 00 32 00 50 00 04
 82.809471 1  300             Rx   d 8 9F 01 00 32 00 50 00 04
 83.008709 1  300             Rx   d 8 A0 01 00 32 00 50 00 04
 83.049710 1  320             Rx   d 8 1C 00 00 08 00 00 00 00
 83.209421 1  300             Rx   d 8 A1 01 00 32 00 50 00 04
 83.409117 1  300             Rx   d 8 A2 01 00 32 00 50 00 04
 83.608191 1  300             Rx   d 8 A3 01 00 32 00 50 00 04
 83.808010 1  300             Rx   d 8 A4 01 00 32 00 00 00 04
 84.008116 1  300             Rx   d 8 A5 01 00 32 00 00 00 04
 84.049609 1  320             Rx   d 8 18 00 00 0D 00 00 00 00
 84.208878 1  300             Rx   d 8 A6 01 00 32 00 50 00 04
 84.408320 1  300             Rx   d 8 A7 01 00 32 00 50 00 04
 84.608361 1  300             Rx   d 8 A8 01 00 32 00 50 00 04
 84.808344 1  300             Rx   d 8 A9 01 00 32 00 50 00 04
 85.008573 1  300             Rx   d 8 AA 01 00 32 00 50 00 04
 85.049426 1  320             Rx   d 8 19 00 00 0A 00 00 00 00
 85.208220 1  300             Rx   d 8 AB 01 00 32 00 50 00 04
 85.408547 1  300             Rx   d 8 AC 01 00 32 00 50 00 04
 85.608489 1  300             Rx   d 8 AD 01 00 32 00 50 00 04
 85.808161 1  300             Rx   d 8 AE 01 00 32 00 50 00 04
 86.008119 1  300             Rx   d 8 AF 01 00 32 00 50 00 04
 86.049530 1  320             Rx   d 8 1B 00 00 0D 00 00 00 00
 86.208291 1  300             Rx   d 8 B0 01 00 32 00 50 00 04
 86.408282 1  300             Rx   d 8 B1 01 00 32 00 50 00 04
 86.608372 1  300             Rx   d 8 B2 01 00 32 00 50 00 04
 86.808265 1  300             Rx   d 8 B3 01 00 32 00 50 00 04
 87.008010 1  300             Rx   d 8 B4 01 00 32 00 50 00 04
 87.049495 1  320             Rx   d 8 1C 00 00 09 00 00 00 00
 87.208051 1  300             Rx   d 8 B5 01 00 32 00 50 00 04
 87.408083 1  300             Rx   d 8 B6 01 00 32 00 50 00 04
 87.607665 1  300             Rx   d 8 B7 01 00 32 00 50 00 04
 87.807590 1  300             Rx   d 8 B8 01 00 32 00 50 00 04
 88.007574 1  300             Rx   d 8 B9 01 00 32 00 50 00 04
 88.049533 1  320             Rx   d 8 1C 00 00 09 00 00 00 00
 88.207524 1  300             Rx   d 8 BA 01 00 32 00 50 00 04
 88.407474 1  300             Rx   d 8 BB 01 00 32 00 50 00 04
 88.607416 1  300             Rx   d 8 BC 01 00 32 00 50 00 04
 88.807391 1  300             Rx   d 8 BD 01 00 32 00 50 00 04
 89.007186 1  300             Rx   d 8 BE 01 00 32 00 50 00 04
 89.049645 1  320             Rx   d 8 1C 00 00 09 00 00 00 00
 89.207120 1  300             Rx   d 8 BF 01 00 32 00 50 00 04
 89.407087 1  300             Rx   d 8 C0 01 00 32 00 50 00 04
 89.607258 1  300             Rx   d 8 C1 01 00 32 00 50 00 04
 89.806889 1  300             Rx   d 8 C2 01 00 32 00 50 00 04
 90.006831 1  300             Rx   d 8 C3 01 00 32 00 50 00 04
 90.049700 1  320             Rx   d 8 1B 00 00 09 00 00 00 00
 90.206822 1  300             Rx   d 8 C4 01 00 32 00 50 00 04
 90.406691 1  300             Rx   d 8 C5 01 00 32 00 50 00 04
 90.605969 1  300             Rx   d 8 C6 01 00 32 00 00 00 04
 90.806682 1  300             Rx   d 8 C7 01 00 32 00 50 00 04
 91.006370 1  300             Rx   d 8 C8 01 00 32 00 50 00 04
 91.049697 1  320             Rx   d 8 1C 00 00 0A 00 00 00 00
 91.206205 1  300             Rx   d 8 C9 01 00 32 00 50 00 04
 91.406426 1  300             Rx   d 8 CA 01 00 32 00 50 00 04
 91.606393 1  300             Rx   d 8 CB 01 00 32 00 50 00 04
 91.805794 1  300             Rx   d 8 CC 01 00 32 00 50 00 04
 92.006318 1  300             Rx   d 8 CD 01 00 32 00 50 00 04
 92.049695 1  320             Rx   d 8 1C 00 00 0C 00 00 00 00
 92.206080 1  300             Rx   d 8 CE 01 00 32 00 50 00 04
 92.406284 1  300             Rx   d 8 CF 01 00 32 00 50 00 04
 92.606194 1  300             Rx   d 8 D0 01 00 32 00 50 00 04
 92.805988 1  300             Rx   d 8 D1 01 00 32 00 50 00 04
 93.005750 1  300             Rx   d 8 D2 01 00 32 00 50 00 04
 93.049676 1  320             Rx   d 8 1C 00 00 0C 00 00 00 00
 93.205791 1  300             Rx   d 8 D3 01 00 32 00 50 00 04
 93.405938 1  300             Rx   d 8 D4 01 00 32 00 50 00 04
 93.605470 1  300             Rx   d 8 D5 01 00 32 00 50 00 04
 93.804863 1  300             Rx   d 8 D6 01 00 32 00 50 00 04
 94.005125 1  300             Rx   d 8 D7 01 00 32 00 50 00 04
 94.049690 1  320             Rx   d 8 1C 00 00 0B 00 00 00 00
 94.204494 1  300             Rx   d 8 D8 01 00 32 00 50 00 04
 94.404772 1  300             Rx   d 8 D9 01 00 32 00 00 00 04
 94.605222 1  300             Rx   d 8 DA 01 00 32 00 50 00 04
 94.805295 1  300             Rx   d 8 DB 01 00 32 00 50 00 04
 95.004983 1  300             Rx   d 8 DC 01 00 32 00 50 00 04
 95.049663 1  320             Rx   d 8 1B 00 00 08 00 00 00 00
 95.204991 1  300             Rx   d 8 DD 01 00 32 00 50 00 04
 95.405064 1  300             Rx   d 8 DE 01 00 32 00 50 00 04
 95.604941 1  300             Rx   d 8 DF 01 00 32 00 50 00 04
 95.804785 1  300             Rx   d 8 E0 01 00 32 00 50 00 04
 96.004825 1  300             Rx   d 8 E1 01 00 32 00 50 00 04
 96.049660 1  320             Rx   d 8 1C 00 00 08 00 00 00 00
 96.204554 1  300             Rx   d 8 E2 01 00 32 00 50 00 04
 96.404677 1  300             Rx   d 8 E3 01 00 32 00 50 00 04
 96.604504 1  300             Rx   d 8 E4 01 00 32 00 50 00 04
 96.804348 1  300             Rx   d 8 E5 01 00 32 00 50 00 04
 97.004323 1  300             Rx   d 8 E6 01 00 32 00 50 00 04
 97.049682 1  320             Rx   d 8 1C 00 00 08 00 00 00 00
 97.204183 1  300             Rx   d 8 E7 01 00 32 00 50 00 04
 97.404567 1  300             Rx   d 8 E8 01 00 32 00 50 00 04
 97.604157 1  300             Rx   d 8 E9 01 00 32 00 50 00 04
 97.804100 1  300             Rx   d 8 EA 01 00 32 00 50 00 04
 98.003968 1  300             Rx   d 8 EB 01 00 32 00 50 00 04
 98.049655 1  320             Rx   d 8 1C 00 00 08 00 00 00 00
 98.203206 1  300             Rx   d 8 EC 01 00 32 00 50 00 04
 98.403271 1  300             Rx   d 8 ED 01 00 32 00 50 00 04
 98.603803 1  300             Rx   d 8 EE 01 00 32 00 50 00 04
 98.803737 1  300             Rx   d 8 EF 01 00 32 00 50 00 04
 99.003589 1  300             Rx   d 8 F0 01 00 32 00 50 00 04
 99.049660 1  320             Rx   d 8 1A 00 00 09 00 00 00 00
 99.202802 1  300             Rx   d 8 F1 01 00 32 00 50 00 04
 99.403530 1  300             Rx   d 8 F2 01 00 32 00 50 00 04
 99.602776 1  300             Rx   d 8 F3 01 00 32 00 00 00 04
 99.803341 1  300             Rx   d 8 F4 01 00 32 00 50 00 04
 100.003340 1  300             Rx   d 8 F5 01 00 32 00 50 00 04
 100.049642 1  320             Rx   d 8 1B 00 00 0B 00 00 00 00
 100.202103 1  300             Rx   d 8 F6 01 00 32 00 00 00 04
 100.403110 1  300             Rx   d 8 F7 01 00 32 00 50 00 04
 100.603109 1  300             Rx   d 8 F8 01 01 32 00 50 00 04
 100.604035 1  310             Rx   d 8 08 00 95 25 7D 91 21 03
 100.803068 1  300             Rx   d 8 F9 01 01 32 00 50 00 04
 100.803920 1  310             Rx   d 8 09 80 99 17 81 C1 71 03
 101.002985 1  300             Rx   d 8 FA 01 00 32 00 50 00 04
 101.049631 1  320             Rx   d 8 1B 00 00 0C 00 00 00 00
 101.202666 1  300             Rx   d 8 FB 01 00 32 00 50 00 04
 101.401993 1  300             Rx   d 8 FC 01 00 32 00 50 00 04
 101.602771 1  300             Rx   d 8 FD 01 00 32 00 50 00 04
 101.802156 1  300             Rx   d 8 FE 01 00 32 00 50 00 04
 102.002352 1  300             Rx   d 8 FF 01 00 32 00 50 00 04
 102.049587 1  320             Rx   d 8 19 00 00 0B 00 00 00 00
 102.202401 1  300             Rx   d 8 00 02 00 32 00 50 00 04
 102.401876 1  300             Rx   d 8 01 02 00 32 00 00 00 04
 102.601744 1  300             Rx   d 8 02 02 00 32 00 00 00 04
 102.802350 1  300             Rx   d 8 03 02 00 32 00 50 00 04
 103.002342 1  300             Rx   d 8 04 02 00 32 00 50 00 04
 103.049626 1  320             Rx   d 8 1B 00 00 08 00 00 00 00
 103.202070 1  300             Rx   d 8 05 02 00 32 00 50 00 04
 103.402013 1  300             Rx   d 8 06 02 00 32 00 50 00 04
 103.602086 1  300             Rx   d 8 07 02 00 32 00 50 00 04
 103.801127 1  300             Rx   d 8 08 02 00 32 00 00 00 04
 104.001896 1  300             Rx   d 8 09 02 00 32 00 50 00 04
 104.049639 1  320             Rx   d 8 1B 00 00 09 00 00 00 00
 104.201773 1  300             Rx   d 8 0A 02 00 32 00 50 00 04
 104.401732 1  300             Rx   d 8 0B 02 00 32 00 50 00 04
 104.601600 1  300             Rx   d 8 0C 02 00 32 00 50 00 04
 104.801550 1  300             Rx   d 8 0D 02 00 32 00 50 00 04
 105.001451 1  300             Rx   d 8 0E 02 00 32 00 50 00 04
 105.049629 1  320             Rx   d 8 1C 00 00 09 00 00 00 00
 105.201246 1  300             Rx   d 8 0F 02 00 32 00 50 00 04
 105.401418 1  300             Rx   d 8 10 02 00 32 00 50 00 04
 105.601245 1  300             Rx   d 8 11 02 00 32 00 50 00 04
 105.801179 1  300             Rx   d 8 12 02 00 32 00 50 00 04
 106.001187 1  300             Rx   d 8 13 02 00 32 00 50 00 04
 106.049634 1  320             Rx   d 8 1B 00 00 08 00 00 00 00
 106.200900 1  300             Rx   d 8 14 02 00 32 00 50 00 04
 106.400154 1  300             Rx   d 8 15 02 00 32 00 00 00 04
 106.601079 1  300             Rx   d 8 16 02 00 32 00 50 00 04
 106.800800 1  300             Rx   d 8 17 02 00 32 00 50 00 04
 107.000463 1  300             Rx   d 8 18 02 00 32 00 50 00 04
 107.049640 1  320             Rx   d 8 1A 00 00 09 00 00 00 00
 107.200053 1  300             Rx   d 8 19 02 00 32 00 50 00 04
 107.400421 1  300             Rx   d 8 1A 02 00 32 00 50 00 04
 107.600528 1  300             Rx   d 8 1B 02 00 32 00 50 00 04
 107.800330 1  300             Rx   d 8 1C 02 00 32 00 50 00 04
 108.000461 1  300             Rx   d 8 1D 02 00 32 00 50 00 04
 108.049531 1  320             Rx   d 8 1A 00 00 0B 00 00 00 00
 108.200272 1  300             Rx   d 8 1E 02 00 32 00 50 00 04
 108.400288 1  300             Rx   d 8 1F 02 00 32 00 50 00 04
 108.600238 1  300             Rx   d 8 20 02 00 32 00 50 00 04
 108.799263 1  300             Rx   d 8 21 02 00 32 00 00 00 04
 108.999901 1  300             Rx   d 8 22 02 00 32 00 50 00 04
 109.049627 1  320             Rx   d 8 1A 00 00 0C 00 00 00 00
 109.200187 1  300             Rx   d 8 23 02 00 32 00 50 00 04
 109.399925 1  300             Rx   d 8 24 02 00 32 00 50 00 04
 109.599883 1  300             Rx   d 8 25 02 00 32 00 50 00 04
 109.799735 1  300             Rx   d 8 26 02 00 32 00 50 00 04
 109.999792 1  300             Rx   d 8 27 02 00 32 00 50 00 04
 110.049616 1  320             Rx   d 8 1B 00 00 0A 00 00 00 00
 110.199833 1  300             Rx   d 8 28 02 00 32 00 50 00 04
 110.399554 1  300             Rx   d 8 29 02 00 32 00 50 00 04
 110.599660 1  300             Rx   d 8 2A 02 00 32 00 50 00 04
 110.799528 1  300             Rx   d 8 2B 02 00 32 00 50 00 04
 110.999315 1  300             Rx   d 8 2C 02 00 32 00 50 00 04
 111.049605 1  320             Rx   d 8 1C 00 00 08 00 00 00 00
 111.199511 1  300             Rx   d 8 2D 02 00 32 00 50 00 04
 111.399330 1  300             Rx   d 8 2E 02 00 32 00 50 00 04
 111.599305 1  300             Rx   d 8 2F 02 00 32 00 50 00 04
 111.799116 1  300             Rx   d 8 30 02 00 32 00 50 00 04
 111.999001 1  300             Rx   d 8 31 02 00 32 00 50 00 04
 112.049422 1  320             Rx   d 8 1D 00 00 08 00 00 00 00
 112.199107 1  300             Rx   d 8 32 02 00 32 00 50 00 04
 112.398852 1  300             Rx   d 8 33 02 00 32 00 50 00 04
 112.598868 1  300             Rx   d 8 34 02 00 32 00 50 00 04
 112.798745 1  300             Rx   d 8 35 02 00 32 00 50 00 04
 112.998679 1  300             Rx   d 8 36 02 00 32 00 50 00 04
 113.049526 1  320             Rx   d 8 1C 00 00 08 00 00 00 00
 113.198662 1  300             Rx   d 8 37 02 00 32 00 50 00 04
 113.398129 1  300             Rx   d 8 38 02 00 32 00 50 00 04
 113.597768 1  300             Rx   d 8 39 02 00 32 00 50 00 04
 113.798332 1  300             Rx   d 8 3A 02 00 32 00 50 00 04
 113.998160 1  300             Rx   d 8 3B 02 00 32 00 50 00 04
 114.049573 1  320             Rx   d 8 1B 00 00 08 00 00 00 00
 114.198315 1  300             Rx   d 8 3C 02 00 32 00 50 00 04
 114.398052 1  300             Rx   d 8 3D 02 00 32 00 50 00 04
 114.597782 1  300             Rx   d 8 3E 02 00 32 00 50 00 04
 114.798133 1  300             Rx   d 8 3F 02 00 32 00 50 00 04
 114.997969 1  300             Rx   d 8 40 02 00 32 00 50 00 04
 115.049546 1  320             Rx   d 8 1C 00 00 0B 00 00 00 00
 115.197862 1  300             Rx   d 8 41 02 00 32 00 50 00 04
 115.396895 1  300             Rx   d 8 42 02 00 32 00 50 00 04
 115.597689 1  300             Rx   d 8 43 02 00 32 00 50 00 04
 115.797787 1  300             Rx   d 8 44 02 00 32 00 50 00 04
 115.997688 1  300             Rx   d 8 45 02 00 32 00 50 00 04
 116.049543 1  320             Rx   d 8 1B 00 00 0C 00 00 00 00
 116.197491 1  300             Rx   d 8 46 02 00 32 00 50 00 04
 116.396630 1  300             Rx   d 8 47 02 00 32 00 50 00 04
 116.597490 1  300             Rx   d 8 48 02 00 32 00 50 00 04
 116.797260 1  300             Rx   d 8 49 02 00 32 00 50 00 04
 116.997308 1  300             Rx   d 8 4A 02 00 32 00 50 00 04
 117.049532 1  320             Rx   d 8 1B 00 00 0B 00 00 00 00
 117.196956 1  300             Rx   d 8 4B 02 00 32 00 50 00 04
 117.396349 1  300             Rx   d 8 4C 02 00 32 00 50 00 04
 117.597086 1  300             Rx   d 8 4D 02 00 32 00 50 00 04
 117.796979 1  300             Rx   d 8 4E 02 00 32 00 50 00 04
 117.996757 1  300             Rx   d 8 4F 02 00 32 00 50 00 04
 118.049563 1  320             Rx   d 8 1B 00 00 0A 00 00 00 00
 118.196896 1  300             Rx   d 8 50 02 00 32 00 50 00 04
 118.396723 1  300             Rx   d 8 51 02 00 32 00 50 00 04
 118.596616 1  300             Rx   d 8 52 02 00 32 00 50 00 04
 118.796575 1  300             Rx   d 8 53 02 00 32 00 50 00 04
 118.996566 1  300             Rx   d 8 54 02 00 32 00 50 00 04
 119.049503 1  320             Rx   d 8 1C 00 00 08 00 00 00 00
 119.196254 1  300             Rx   d 8 55 02 00 32 00 50 00 04
 119.396369 1  300             Rx   d 8 56 02 00 32 00 50 00 04
 119.596212 1  300             Rx   d 8 57 02 00 32 00 50 00 04
 119.796236 1  300             Rx   d 8 58 02 00 32 00 50 00 04
 119.996039 1  300             Rx   d 8 59 02 00 32 00 50 00 04
 120.049533 1  320             Rx   d 8 1B 00 00 09 00 00 00 00
 120.196063 1  300             Rx   d 8 5A 02 00 32 00 50 00 04
 120.396120 1  300             Rx   d 8 5B 02 00 32 00 50 00 04
 120.595923 1  300             Rx   d 8 5C 02 00 32 00 50 00 04
 120.795750 1  300             Rx   d 8 5D 02 00 32 00 50 00 04
 120.995758 1  300             Rx   d 8 5E 02 00 32 00 50 00 04
 121.049506 1  320             Rx   d 8 1B 00 00 08 00 00 00 00
 121.195643 1  300             Rx   d 8 5F 02 00 32 00 50 00 04
 121.395569 1  300             Rx   d 8 60 02 00 32 00 50 00 04
 121.595380 1  300             Rx   d 8 61 02 00 32 00 50 00 04
 121.795346 1  300             Rx   d 8 62 02 00 32 00 50 00 04
 121.995354 1  300             Rx   d 8 63 02 00 32 00 50 00 04
 122.049487 1  320             Rx   d 8 1A 00 00 08 00 00 00 00
 122.195157 1  300             Rx   d 8 64 02 00 32 00 50 00 04
 122.395296 1  300             Rx   d 8 65 02 00 32 00 50 00 04
 122.595123 1  300             Rx   d 8 66 02 00 32 00 50 00 04
 122.795139 1  300             Rx   d 8 67 02 00 32 00 50 00 04
 122.994860 1  300             Rx   d 8 68 02 00 32 00 50 00 04
 123.049468 1  320             Rx   d 8 1B 00 00 0A 00 00 00 00
 123.194679 1  300             Rx   d 8 69 02 00 32 00 50 00 04
 123.394835 1  300             Rx   d 8 6A 02 01 32 00 50 00 04
 123.395662 1  310             Rx   d 8 0A 00 95 F4 AB A8 20 02
 123.593769 1  300             Rx   d 8 6B 02 00 32 00 00 00 04
 123.794948 1  300             Rx   d 8 6C 02 00 32 00 50 00 04
 123.994866 1  300             Rx   d 8 6D 02 00 32 00 50 00 04
 124.049457 1  320             Rx   d 8 1A 00 00 0D 00 00 00 00
 124.194783 1  300             Rx   d 8 6E 02 00 32 00 50 00 04
 124.394455 1  300             Rx   d 8 6F 02 00 32 00 50 00 04
 124.594692 1  300             Rx   d 8 70 02 01 32 00 50 00 04
 124.595610 1  310             Rx   d 8 00 00 9D E7 1B 1C 22 03
 124.793913 1  300             Rx   d 8 71 02 00 32 00 50 00 04
 124.994429 1  300             Rx   d 8 72 02 00 32 00 50 00 04
 125.049479 1  320             Rx   d 8 1A 00 00 0C 00 00 00 00
 125.194060 1  300             Rx   d 8 73 02 00 32 00 50 00 04
 125.394231 1  300             Rx   d 8 74 02 00 32 00 50 00 04
 125.594182 1  300             Rx   d 8 75 02 00 32 00 50 00 04
 125.793976 1  300             Rx   d 8 76 02 00 32 00 50 00 04
 125.993959 1  300             Rx   d 8 77 02 00 32 00 50 00 04
 126.049444 1  320             Rx   d 8 1B 00 00 09 00 00 00 00
 126.193844 1  300             Rx   d 8 78 02 00 32 00 50 00 04
 126.393803 1  300             Rx   d 8 79 02 00 32 00 50 00 04
 126.593843 1  300             Rx   d 8 7A 02 00 32 00 50 00 04
 126.793613 1  300             Rx   d 8 7B 02 00 32 00 50 00 04
 126.993498 1  300             Rx   d 8 7C 02 00 32 00 50 00 04
 127.049425 1  320             Rx   d 8 1B 00 00 08 00 00 00 00
 127.193391 1  300             Rx   d 8 7D 02 00 32 00 50 00 04
 127.393456 1  300             Rx   d 8 7E 02 00 32 00 50 00 04
 127.593513 1  300             Rx   d 8 7F 02 00 32 00 50 00 04
 127.793234 1  300             Rx   d 8 80 02 00 32 00 50 00 04
 127.993266 1  300             Rx   d 8 81 02 00 32 00 50 00 04
 128.049447 1  320             Rx   d 8 1B 00 00 08 00 00 00 00
 128.193249 1  300             Rx   d 8 82 02 00 32 00 50 00 04
 128.392618 1  300             Rx   d 8 83 02 00 32 00 00 00 04
 128.592790 1  300             Rx   d 8 84 02 00 32 00 50 00 04
 128.792543 1  300             Rx   d 8 85 02 00 32 00 50 00 04
 128.993001 1  300             Rx   d 8 86 02 00 32 00 50 00 04
 129.049485 1  320             Rx   d 8 1A 00 00 08 00 00 00 00
 129.192853 1  300             Rx   d 8 87 02 00 32 00 50 00 04
 129.392869 1  300             Rx   d 8 88 02 00 32 00 50 00 04
 129.592451 1  300             Rx   d 8 89 02 00 32 00 50 00 04
 129.791975 1  300             Rx   d 8 8A 02 00 32 00 50 00 04
 129.992409 1  300             Rx   d 8 8B 02 00 32 00 50 00 04
 130.049450 1  320             Rx   d 8 1A 00 00 08 00 00 00 00
 130.192409 1  300             Rx   d 8 8C 02 00 32 00 50 00 04
 130.392408 1  300             Rx   d 8 8D 02 00 32 00 50 00 04
 130.591269 1  300             Rx   d 8 8E 02 00 32 00 50 00 04
 130.792276 1  300             Rx   d 8 8F 02 00 32 00 50 00 04
 130.992210 1  300             Rx   d 8 90 02 00 32 00 50 00 04
 131.049415 1  320             Rx   d 8 1B 00 00 0C 00 00 00 00
 131.192185 1  300             Rx   d 8 91 02 00 32 00 50 00 04
 131.391906 1  300             Rx   d 8 92 02 00 32 00 50 00 04
 131.590980 1  300             Rx   d 8 93 02 00 32 00 50 00 04
 131.791782 1  300             Rx   d 8 94 02 00 32 00 50 00 04
 131.990823 1  300             Rx   d 8 95 02 00 32 00 00 00 04
 132.049461 1  320             Rx   d 8 1A 00 00 0D 00 00 00 00
 132.191879 1  300             Rx   d 8 96 02 00 32 00 50 00 04
 132.391412 1  300             Rx   d 8 97 02 00 32 00 50 00 04
 132.590731 1  300             Rx   d 8 98 02 00 32 00 50 00 04
 132.791067 1  300             Rx   d 8 99 02 00 32 00 50 00 04
 132.990984 1  300             Rx   d 8 9A 02 00 32 00 00 00 04
 133.049442 1  320             Rx   d 8 17 00 00 0B 00 00 00 00
 133.191295 1  300             Rx   d 8 9B 02 00 32 00 50 00 04
 133.391147 1  300             Rx   d 8 9C 02 00 32 00 50 00 04
 133.590147 1  300             Rx   d 8 9D 02 00 32 00 00 00 04
 133.791113 1  300             Rx   d 8 9E 02 00 32 00 50 00 04
 133.991137 1  300             Rx   d 8 9F 02 00 32 00 50 00 04
 134.049432 1  320             Rx   d 8 1B 00 00 08 00 00 00 00
 134.190948 1  300             Rx   d 8 A0 02 00 32 00 50 00 04
 134.390104 1  300             Rx   d 8 A1 02 00 32 00 50 00 04
 134.590480 1  300             Rx   d 8 A2 02 00 32 00 50 00 04
 134.789751 1  300             Rx   d 8 A3 02 00 32 00 50 00 04
 134.990709 1  300             Rx   d 8 A4 02 00 32 00 50 00 04
 135.049404 1  320             Rx   d 8 17 00 00 08 00 00 00 00
 135.190561 1  300             Rx   d 8 A5 02 00 32 00 50 00 04
 135.390380 1  300             Rx   d 8 A6 02 00 32 00 50 00 04
 135.590035 1  300             Rx   d 8 A7 02 00 32 00 50 00 04
 135.789904 1  300             Rx   d 8 A8 02 00 32 00 50 00 04
 135.990297 1  300             Rx   d 8 A9 02 00 32 00 50 00 04
 136.049361 1  320             Rx   d 8 19 00 00 08 00 00 00 00
 136.190181 1  300             Rx   d 8 AA 02 00 32 00 50 00 04
 136.389501 1  300             Rx   d 8 AB 02 00 32 00 50 00 04
 136.589632 1  300             Rx   d 8 AC 02 00 32 00 50 00 04
 136.788886 1  300             Rx   d 8 AD 02 00 32 00 50 00 04
 136.990040 1  300             Rx   d 8 AE 02 00 32 00 50 00 04
 137.049407 1  320             Rx   d 8 15 00 00 08 00 00 00 00
 137.189958 1  300             Rx   d 8 AF 02 00 32 00 50 00 04
 137.389793 1  300             Rx   d 8 B0 02 00 32 00 50 00 04
 137.589138 1  300             Rx   d 8 B1 02 00 32 00 50 00 04
 137.789538 1  300             Rx   d 8 B2 02 00 32 00 50 00 04
 137.989644 1  300             Rx   d 8 B3 02 00 32 00 50 00 04
 138.049380 1  320             Rx   d 8 1A 00 00 09 00 00 00 00
 138.189439 1  300             Rx   d 8 B4 02 00 32 00 50 00 04
 138.389242 1  300             Rx   d 8 B5 02 00 32 00 50 00 04
 138.588521 1  300             Rx   d 8 B6 02 00 32 00 50 00 04
 138.789462 1  300             Rx   d 8 B7 02 00 32 00 50 00 04
 138.989437 1  300             Rx   d 8 B8 02 00 32 00 50 00 04
 139.049435 1  320             Rx   d 8 1A 00 00 0C 00 00 00 00
 139.189338 1  300             Rx   d 8 B9 02 00 32 00 50 00 04
 139.389182 1  300             Rx   d 8 BA 02 00 32 00 50 00 04
 139.588461 1  300             Rx   d 8 BB 02 00 32 00 50 00 04
 139.788952 1  300             Rx   d 8 BC 02 00 32 00 50 00 04
 139.988738 1  300             Rx   d 8 BD 02 00 32 00 50 00 04
 140.049375 1  320             Rx   d 8 1B 00 00 0B 00 00 00 00
 140.188697 1  300             Rx   d 8 BE 02 00 32 00 50 00 04
 140.388516 1  300             Rx   d 8 BF 02 00 32 00 50 00 04
 140.587729 1  300             Rx   d 8 C0 02 00 32 00 50 00 04
 140.788769 1  300             Rx   d 8 C1 02 00 32 00 50 00 04
 140.988588 1  300             Rx   d 8 C2 02 00 32 00 50 00 04
 141.049373 1  320             Rx   d 8 1A 00 00 0B 00 00 00 00
 141.188473 1  300             Rx   d 8 C3 02 00 32 00 50 00 04
 141.388341 1  300             Rx   d 8 C4 02 00 32 00 50 00 04
 141.587759 1  300             Rx   d 8 C5 02 00 32 00 50 00 04
 141.787652 1  300             Rx   d 8 C6 02 00 32 00 00 00 04
 141.988250 1  300             Rx   d 8 C7 02 00 32 00 50 00 04
 142.049370 1  320             Rx   d 8 1C 00 00 08 00 00 00 00
 142.188241 1  300             Rx   d 8 C8 02 00 32 00 50 00 04
 142.388609 1  300             Rx   d 8 C9 02 00 32 00 50 00 04
 142.588109 1  300             Rx   d 8 CA 02 00 32 00 50 00 04
 142.787879 1  300             Rx   d 8 CB 02 00 32 00 50 00 04
 142.987928 1  300             Rx   d 8 CC 02 00 32 00 50 00 04
 143.049351 1  320             Rx   d 8 1C 00 00 08 00 00 00 00
 143.187845 1  300             Rx   d 8 CD 02 00 32 00 50 00 04
 143.387722 1  300             Rx   d 8 CE 02 00 32 00 50 00 04
 143.587590 1  300             Rx   d 8 CF 02 00 32 00 50 00 04
 143.787704 1  300             Rx   d 8 D0 02 00 32 00 50 00 04
 143.987745 1  300             Rx   d 8 D1 02 00 32 00 50 00 04
 144.049365 1  320             Rx   d 8 1D 00 00 08 00 00 00 00
 144.187458 1  300             Rx   d 8 D2 02 00 32 00 50 00 04
 144.387473 1  300             Rx   d 8 D3 02 00 32 00 50 00 04
 144.587448 1  300             Rx   d 8 D4 02 00 32 00 50 00 04
 144.786547 1  300             Rx   d 8 D5 02 00 32 00 50 00 04
 144.986333 1  300             Rx   d 8 D6 02 00 32 00 00 00 04
 145.049354 1  320             Rx   d 8 1C 00 00 08 00 00 00 00
 145.186210 1  300             Rx   d 8 D7 02 00 32 00 00 00 04
 145.386987 1  300             Rx   d 8 D8 02 00 32 00 50 00 04
 145.586184 1  300             Rx   d 8 D9 02 00 32 00 50 00 04
 145.786143 1  300             Rx   d 8 DA 02 00 32 00 50 00 04
 145.986175 1  300             Rx   d 8 DB 02 00 32 00 50 00 04
 146.049335 1  320             Rx   d 8 15 00 00 09 00 00 00 00
 146.186592 1  300             Rx   d 8 DC 02 00 32 00 50 00 04
 146.385986 1  300             Rx   d 8 DD 02 00 32 00 50 00 04
 146.586329 1  300             Rx   d 8 DE 02 00 32 00 50 00 04
 146.785657 1  300             Rx   d 8 DF 02 00 32 00 50 00 04
 146.985927 1  300             Rx   d 8 E0 02 00 32 00 00 00 04
 147.049325 1  320             Rx   d 8 18 00 00 0C 00 00 00 00
 147.186401 1  300             Rx   d 8 E1 02 00 32 00 50 00 04
 147.386212 1  300             Rx   d 8 E2 02 00 32 00 50 00 04
 147.586277 1  300             Rx   d 8 E3 02 00 32 00 50 00 04
 147.785179 1  300             Rx   d 8 E4 02 00 32 00 00 00 04
 147.986014 1  300             Rx   d 8 E5 02 00 32 00 50 00 04
 148.049306 1  320             Rx   d 8 1C 00 00 0B 00 00 00 00
 148.186030 1  300             Rx   d 8 E6 02 00 32 00 50 00 04
 148.386054 1  300             Rx   d 8 E7 02 00 32 00 50 00 04
 148.585742 1  300             Rx   d 8 E8 02 00 32 00 50 00 04
 148.784832 1  300             Rx   d 8 E9 02 00 32 00 00 00 04
 148.985586 1  300             Rx   d 8 EA 02 00 32 00 50 00 04
 149.049270 1  320             Rx   d 8 1C 00 00 0A 00 00 00 00
 149.185585 1  300             Rx   d 8 EB 02 00 32 00 50 00 04
 149.385781 1  300             Rx   d 8 EC 02 00 32 00 50 00 04
 149.585543 1  300             Rx   d 8 ED 02 00 32 00 50 00 04
 149.784453 1  300             Rx   d 8 EE 02 00 32 00 50 00 04
 149.985550 1  300             Rx   d 8 EF 02 00 32 00 50 00 04
 150.049317 1  320             Rx   d 8 1C 00 00 08 00 00 00 00
 150.185370 1  300             Rx   d 8 F0 02 00 32 00 50 00 04
 150.385279 1  300             Rx   d 8 F1 02 00 32 00 50 00 04
 150.585369 1  300             Rx   d 8 F2 02 00 32 00 50 00 04
 150.784352 1  300             Rx   d 8 F3 02 00 32 00 50 00 04
 150.984901 1  300             Rx   d 8 F4 02 00 32 00 50 00 04
 151.049298 1  320             Rx   d 8 1C 00 00 08 00 00 00 00
 151.184958 1  300             Rx   d 8 F5 02 00 32 00 50 00 04
 151.384736 1  300             Rx   d 8 F6 02 00 32 00 50 00 04
 151.584653 1  300             Rx   d 8 F7 02 00 32 00 50 00 04
 151.784759 1  300             Rx   d 8 F8 02 00 32 00 50 00 04
 151.984144 1  300             Rx   d 8 F9 02 00 32 00 50 00 04
 152.049312 1  320             Rx   d 8 1C 00 00 08 00 00 00 00
 152.184554 1  300             Rx   d 8 FA 02 00 32 00 50 00 04
 152.384422 1  300             Rx   d 8 FB 02 00 32 00 50 00 04
 152.584405 1  300             Rx   d 8 FC 02 00 32 00 50 00 04
 152.784044 1  300             Rx   d 8 FD 02 00 32 00 50 00 04
 152.984232 1  300             Rx   d 8 FE 02 00 32 00 50 00 04
 153.049236 1  320             Rx   d 8 1C 00 00 08 00 00 00 00
 153.183543 1  300             Rx   d 8 FF 02 00 32 00 00 00 04
 153.384034 1  300             Rx   d 8 00 03 00 32 00 50 00 04
 153.583534 1  300             Rx   d 8 01 03 00 32 00 50 00 04
 153.783591 1  300             Rx   d 8 02 03 00 32 00 51 00 04
 153.983836 1  300             Rx   d 8 03 03 00 32 00 50 00 04
 154.049299 1  320             Rx   d 8 16 00 00 0A 00 00 00 00
 154.184196 1  300             Rx   d 8 04 03 00 32 00 50 00 04
 154.382901 1  300             Rx   d 8 05 03 00 32 00 00 00 04
 154.583351 1  300             Rx   d 8 06 03 00 32 00 50 00 04
 154.783384 1  300             Rx   d 8 07 03 00 32 00 50 00 04
 154.983580 1  300             Rx   d 8 08 03 00 32 00 50 00 04
 155.049288 1  320             Rx   d 8 1A 00 00 0D 00 00 00 00
 155.182637 1  300             Rx   d 8 09 03 00 32 00 00 00 04
 155.382809 1  300             Rx   d 8 0A 03 00 32 00 00 00 04
 155.582497 1  300             Rx   d 8 0B 03 00 32 00 50 00 04
 155.783242 1  300             Rx   d 8 0C 03 00 32 00 50 00 04
 155.983233 1  300             Rx   d 8 0D 03 00 32 00 50 00 04
 156.049310 1  320             Rx   d 8 15 00 00 0C 00 00 00 00
 156.182528 1  300             Rx   d 8 0E 03 00 32 00 50 00 04
 156.382994 1  300             Rx   d 8 0F 03 00 32 00 50 00 04
 156.582199 1  300             Rx   d 8 10 03 00 32 00 50 00 04
 156.782772 1  300             Rx   d 8 11 03 00 32 00 50 00 04
 156.982985 1  300             Rx   d 8 12 03 00 32 00 50 00 04
 157.049258 1  320             Rx   d 8 1A 00 00 08 00 00 00 00
 157.182755 1  300             Rx   d 8 13 03 00 32 00 50 00 04
 157.381902 1  300             Rx   d 8 14 03 00 32 00 50 00 04
 157.582713 1  300             Rx   d 8 15 03 00 32 00 50 00 04
 157.782393 1  300             Rx   d 8 16 03 00 32 00 50 00 04
 157.982540 1  300             Rx   d 8 17 03 00 32 00 50 00 04
 158.049255 1  320             Rx   d 8 1B 00 00 08 00 00 00 00
 158.182277 1  300             Rx   d 8 18 03 00 32 00 50 00 04
 158.382408 1  300             Rx   d 8 19 03 00 32 00 50 00 04
 158.582334 1  300             Rx   d 8 1A 03 00 32 00 50 00 04
 158.782071 1  300             Rx   d 8 1B 03 00 32 00 50 00 04
 158.982054 1  300             Rx   d 8 1C 03 00 32 00 50 00 04
 159.049269 1  320             Rx   d 8 1C 00 00 09 00 00 00 00
 159.182078 1  300             Rx   d 8 1D 03 00 32 00 50 00 04
 159.381906 1  300             Rx   d 8 1E 03 00 32 00 50 00 04
 159.581200 1  300             Rx   d 8 1F 03 00 32 00 00 00 04
 159.781880 1  300             Rx   d 8 20 03 00 32 00 50 00 04
 159.981674 1  300             Rx   d 8 21 03 00 32 00 50 00 04
 160.049242 1  320             Rx   d 8 1B 00 00 08 00 00 00 00
 160.181035 1  300             Rx   d 8 22 03 00 32 00 50 00 04
 160.381067 1  300             Rx   d 8 23 03 00 32 00 50 00 04
 160.580805 1  300             Rx   d 8 24 03 00 32 00 50 00 04
 160.781427 1  300             Rx   d 8 25 03 00 32 00 50 00 04
 160.981361 1  300             Rx   d 8 26 03 00 32 00 50 00 04
 161.049191 1  320             Rx   d 8 16 00 00 09 00 00 00 00
 161.180566 1  300             Rx   d 8 27 03 00 32 00 50 00 04
 161.380557 1  300             Rx   d 8 28 03 00 32 00 50 00 04
 161.581113 1  300             Rx   d 8 29 03 00 32 00 50 00 04
 161.780834 1  300             Rx   d 8 2A 03 00 32 00 50 00 04
 161.980498 1  300             Rx   d 8 2B 03 00 32 00 50 00 04
 162.049245 1  320             Rx   d 8 15 00 00 0C 00 00 00 00
 162.180161 1  300             Rx   d 8 2C 03 00 32 00 50 00 04
 162.379743 1  300             Rx   d 8 2D 03 00 32 00 50 00 04
 162.580685 1  300             Rx   d 8 2E 03 00 32 00 50 00 04
 162.780005 1  300             Rx   d 8 2F 03 00 32 00 50 00 04
 162.979635 1  300             Rx   d 8 30 03 00 32 00 00 00 04
 163.049210 1  320             Rx   d 8 13 00 00 0D 00 00 00 00
 163.180528 1  300             Rx   d 8 31 03 00 32 00 50 00 04
 163.379823 1  300             Rx   d 8 32 03 00 32 00 00 00 04
 163.580314 1  300             Rx   d 8 33 03 00 32 00 50 00 04
 163.779649 1  300             Rx   d 8 34 03 00 32 00 50 00 04
 163.979493 1  300             Rx   d 8 35 03 00 32 00 50 00 04
 164.049216 1  320             Rx   d 8 15 00 00 0A 00 00 00 00
 164.179689 1  300             Rx   d 8 36 03 00 32 00 50 00 04
 164.379361 1  300             Rx   d 8 37 03 00 32 00 50 00 04
 164.580147 1  300             Rx   d 8 38 03 00 32 00 50 00 04
 164.780138 1  300             Rx   d 8 39 03 00 32 00 50 00 04
 164.978876 1  300             Rx   d 8 3A 03 00 32 00 50 00 04
 165.048722 1  320             Rx   d 8 16 00 00 08 00 00 00 00
 165.179253 1  300             Rx   d 8 3B 03 00 32 00 50 00 04
 165.379039 1  300             Rx   d 8 3C 03 00 32 00 00 00 04
 165.579563 1  300             Rx   d 8 3D 03 00 32 00 50 00 04
 165.779874 1  300             Rx   d 8 3E 03 00 32 00 51 00 04
 165.978907 1  300             Rx   d 8 3F 03 00 32 00 50 00 04
 166.049202 1  320             Rx   d 8 15 00 00 08 00 00 00 00
 166.178923 1  300             Rx   d 8 40 03 00 32 00 00 00 04
 166.378627 1  300             Rx   d 8 41 03 00 32 00 50 00 04
 166.579249 1  300             Rx   d 8 42 03 00 32 00 50 00 04
 166.779404 1  300             Rx   d 8 43 03 00 32 00 50 00 04
 166.979052 1  300             Rx   d 8 44 03 00 32 00 50 00 04
 167.049052 1  320             Rx   d 8 1A 00 00 08 00 00 00 00
 167.178805 1  300             Rx   d 8 45 03 00 32 00 50 00 04
 167.378289 1  300             Rx   d 8 46 03 01 32 00 00 00 04
 167.379018 1  310             Rx   d 8 06 00 96 DB 92 61 42 04
 167.579058 1  300             Rx   d 8 47 03 01 32 00 50 00 04
 167.579959 1  310             Rx   d 8 07 00 1A E0 9A 75 E2 04
 167.779115 1  300             Rx   d 8 48 03 01 32 00 50 00 04
 167.780041 1  310             Rx   d 8 08 00 E0 E3 9E A9 42 05
 167.978918 1  300             Rx   d 8 49 03 00 32 00 50 00 04
 168.048992 1  320             Rx   d 8 1A 00 00 08 00 00 00 00
 168.178770 1  300             Rx   d 8 4A 03 00 32 00 50 00 04
 168.378737 1  300             Rx   d 8 4B 03 00 32 00 50 00 04
 168.578908 1  300             Rx   d 8 4C 03 00 32 00 50 00 04
 168.778514 1  300             Rx   d 8 4D 03 00 32 00 50 00 04
 168.978604 1  300             Rx   d 8 4E 03 00 32 00 50 00 04
 169.048957 1  320             Rx   d 8 1B 00 00 0A 00 00 00 00
 169.178464 1  300             Rx   d 8 4F 03 00 32 00 50 00 04
 169.377620 1  300             Rx   d 8 50 03 00 32 00 50 00 04
 169.578291 1  300             Rx   d 8 51 03 00 32 00 50 00 04
 169.778111 1  300             Rx   d 8 52 03 00 32 00 50 00 04
 169.978028 1  300             Rx   d 8 53 03 00 32 00 50 00 04
 170.048979 1  320             Rx   d 8 1B 00 00 0A 00 00 00 00
 170.178273 1  300             Rx   d 8 54 03 00 32 00 50 00 04
 170.377978 1  300             Rx   d 8 55 03 00 32 00 50 00 04
 170.578109 1  300             Rx   d 8 56 03 00 32 00 50 00 04
 170.778059 1  300             Rx   d 8 57 03 00 32 00 51 00 04
 170.978017 1  300             Rx   d 8 58 03 00 32 00 50 00 04
 171.049001 1  320             Rx   d 8 1C 00 00 0D 00 00 00 00
 171.177935 1  300             Rx   d 8 59 03 00 32 00 50 00 04
 171.376730 1  300             Rx   d 8 5A 03 00 32 00 50 00 04
 171.577451 1  300             Rx   d 8 5B 03 00 32 00 50 00 04
 171.777802 1  300             Rx   d 8 5C 03 00 32 00 51 00 04
 171.977441 1  300             Rx   d 8 5D 03 00 32 00 50 00 04
 172.048990 1  320             Rx   d 8 1A 00 00 0B 00 00 00 00
 172.177506 1  300             Rx   d 8 5E 03 00 32 00 50 00 04
 172.377342 1  300             Rx   d 8 5F 03 00 32 00 50 00 04
 172.576998 1  300             Rx   d 8 60 03 00 32 00 50 00 04
 172.777210 1  300             Rx   d 8 61 03 00 32 00 50 00 04
 172.977046 1  300             Rx   d 8 62 03 00 32 00 50 00 04
 173.049021 1  320             Rx   d 8 1C 00 00 09 00 00 00 00
 173.177102 1  300             Rx   d 8 63 03 00 32 00 50 00 04
 173.377012 1  300             Rx   d 8 64 03 00 32 00 50 00 04
 173.577060 1  300             Rx   d 8 65 03 00 32 00 50 00 04
 173.776478 1  300             Rx   d 8 66 03 00 32 00 00 00 04
 173.976781 1  300             Rx   d 8 67 03 00 32 00 50 00 04
 174.049157 1  320             Rx   d 8 1C 00 00 08 00 00 00 00
 174.176559 1  300             Rx   d 8 68 03 00 32 00 50 00 04
 174.376682 1  300             Rx   d 8 69 03 00 32 00 50 00 04
 174.576452 1  300             Rx   d 8 6A 03 00 32 00 50 00 04
 174.776689 1  300             Rx   d 8 6B 03 00 32 00 51 00 04
 174.976393 1  300             Rx   d 8 6C 03 00 32 00 50 00 04
 175.049105 1  320             Rx   d 8 1A 00 00 08 00 00 00 00
 175.175631 1  300             Rx   d 8 6D 03 00 32 00 00 00 04
 175.376237 1  300             Rx   d 8 6E 03 00 32 00 50 00 04
 175.575753 1  300             Rx   d 8 6F 03 00 32 00 50 00 04
 175.776113 1  300             Rx   d 8 70 03 00 32 00 50 00 04
 175.976006 1  300             Rx   d 8 71 03 00 32 00 50 00 04
 176.049128 1  320             Rx   d 8 19 00 00 09 00 00 00 00
 176.175825 1  300             Rx   d 8 72 03 00 32 00 50 00 04
 176.375824 1  300             Rx   d 8 73 03 00 32 00 50 00 04
 176.574996 1  300             Rx   d 8 74 03 00 32 00 50 00 04
 176.775389 1  300             Rx   d 8 75 03 00 32 00 51 00 04
 176.974963 1  300             Rx   d 8 76 03 00 32 00 50 00 04
 177.049084 1  320             Rx   d 8 14 00 00 0A 00 00 00 00
 177.175577 1  300             Rx   d 8 77 03 00 32 00 50 00 04
 177.375494 1  300             Rx   d 8 78 03 00 32 00 50 00 04
 177.575346 1  300             Rx   d 8 79 03 00 32 00 50 00 04
 177.775485 1  300             Rx   d 8 7A 03 00 32 00 51 00 04
 177.975059 1  300             Rx   d 8 7B 03 00 32 00 50 00 04
 178.049122 1  320             Rx   d 8 1A 00 00 0D 00 00 00 00
 178.174878 1  300             Rx   d 8 7C 03 00 32 00 50 00 04
 178.375148 1  300             Rx   d 8 7D 03 00 32 00 50 00 04
 178.575032 1  300             Rx   d 8 7E 03 00 32 00 50 00 04
 178.775253 1  300             Rx   d 8 7F 03 00 32 00 51 00 04
 178.975039 1  300             Rx   d 8 80 03 00 32 00 50 00 04
 179.049103 1  320             Rx   d 8 1B 00 00 0C 00 00 00 00
 179.174064 1  300             Rx   d 8 81 03 00 32 00 00 00 04
 179.374899 1  300             Rx   d 8 82 03 00 32 00 50 00 04
 179.574735 1  300             Rx   d 8 83 03 00 32 00 50 00 04
 179.774005 1  300             Rx   d 8 84 03 00 32 00 51 00 04
 179.974767 1  300             Rx   d 8 85 03 01 32 00 50 00 04
 179.975389 1  310             Rx   d 8 05 80 98 2B 6B 48 51 02
 180.049109 1  320             Rx   d 8 1C 00 00 0A 00 00 00 00
 180.173800 1  300             Rx   d 8 86 03 01 32 00 00 00 04
 180.174324 1  310             Rx   d 8 06 80 65 22 6D 5C 81 02
 180.374438 1  300             Rx   d 8 87 03 00 32 00 50 00 04
 180.574634 1  300             Rx   d 8 88 03 00 32 00 50 00 04
 180.774560 1  300             Rx   d 8 89 03 00 32 00 00 00 04
 180.974109 1  300             Rx   d 8 8A 03 00 32 00 50 00 04
 181.049074 1  320             Rx   d 8 1B 00 00 09 00 00 00 00
 181.173404 1  300             Rx   d 8 8B 03 00 32 00 50 00 04
 181.374083 1  300             Rx   d 8 8C 03 00 32 00 50 00 04
 181.574091 1  300             Rx   d 8 8D 03 00 32 00 50 00 04
 181.774557 1  300             Rx   d 8 8E 03 00 32 00 51 00 04
 181.973942 1  300             Rx   d 8 8F 03 00 32 00 50 00 04
 182.049038 1  320             Rx   d 8 1C 00 00 08 00 00 00 00
 182.173049 1  300             Rx   d 8 90 03 00 32 00 50 00 04
 182.373884 1  300             Rx   d 8 91 03 00 32 00 50 00 04
 182.573744 1  300             Rx   d 8 92 03 00 32 00 50 00 04
 182.773801 1  300             Rx   d 8 93 03 00 32 00 50 00 04
 182.973448 1  300             Rx   d 8 94 03 00 32 00 50 00 04
 183.049093 1  320             Rx   d 8 1C 00 00 08 00 00 00 00
 183.173407 1  300             Rx   d 8 95 03 00 32 00 50 00 04
 183.373431 1  300             Rx   d 8 96 03 00 32 00 50 00 04
 183.573308 1  300             Rx   d 8 97 03 00 32 00 50 00 04
 183.772938 1  300             Rx   d 8 98 03 00 32 00 00 00 04
 183.973151 1  300             Rx   d 8 99 03 00 32 00 50 00 04
 184.049066 1  320             Rx   d 8 1A 00 00 08 00 00 00 00
 184.173068 1  300             Rx   d 8 9A 03 00 32 00 50 00 04
 184.372503 1  300             Rx   d 8 9B 03 00 32 00 00 00 04
 184.572543 1  300             Rx   d 8 9C 03 00 32 00 50 00 04
 184.772985 1  300             Rx   d 8 9D 03 00 32 00 50 00 04
 184.972747 1  300             Rx   d 8 9E 03 00 32 00 50 00 04
 185.049047 1  320             Rx   d 8 1B 00 00 0C 00 00 00 00
 185.172394 1  300             Rx   d 8 9F 03 00 32 00 50 00 04
 185.372672 1  300             Rx   d 8 A0 03 00 32 00 50 00 04
 185.571746 1  300             Rx   d 8 A1 03 00 32 00 00 00 04
 185.772941 1  300             Rx   d 8 A2 03 00 32 00 51 00 04
 185.972310 1  300             Rx   d 8 A3 03 00 32 00 50 00 04
 186.049061 1  320             Rx   d 8 19 00 00 0B 00 00 00 00
 186.172260 1  300             Rx   d 8 A4 03 00 32 00 50 00 04
 186.372301 1  300             Rx   d 8 A5 03 00 32 00 50 00 04
 186.572136 1  300             Rx   d 8 A6 03 00 32 00 50 00 04
 186.771743 1  300             Rx   d 8 A7 03 00 32 00 00 00 04
 186.971627 1  300             Rx   d 8 A8 03 00 32 00 50 00 04
 187.049058 1  320             Rx   d 8 1B 00 00 0B 00 00 00 00
 187.170710 1  300             Rx   d 8 A9 03 00 32 00 50 00 04
 187.371913 1  300             Rx   d 8 AA 03 00 32 00 50 00 04
 187.570995 1  300             Rx   d 8 AB 03 00 32 00 00 00 04
 187.772305 1  300             Rx   d 8 AC 03 00 32 00 51 00 04
 187.971789 1  300             Rx   d 8 AD 03 00 32 00 50 00 04
 188.048998 1  320             Rx   d 8 1A 00 00 0A 00 00 00 00
 188.170650 1  300             Rx   d 8 AE 03 00 32 00 00 00 04
 188.370919 1  300             Rx   d 8 AF 03 00 32 00 00 00 04
 188.570796 1  300             Rx   d 8 B0 03 00 32 00 00 00 04
 188.770976 1  300             Rx   d 8 B1 03 00 32 00 00 00 04
 188.971254 1  300             Rx   d 8 B2 03 00 32 00 50 00 04
 189.049029 1  320             Rx   d 8 15 00 00 08 00 00 00 00
 189.171221 1  300             Rx   d 8 B3 03 00 32 00 50 00 04
 189.371023 1  300             Rx   d 8 B4 03 00 32 00 50 00 04
 189.571088 1  300             Rx   d 8 B5 03 00 32 00 50 00 04
 189.770900 1  300             Rx   d 8 B6 03 00 32 00 00 00 04
 189.970907 1  300             Rx   d 8 B7 03 00 32 00 50 00 04
 190.049034 1  320             Rx   d 8 1B 00 00 08 00 00 00 00
 190.170857 1  300             Rx   d 8 B8 03 00 32 00 50 00 04
 190.370726 1  300             Rx   d 8 B9 03 00 32 00 50 00 04
 190.570922 1  300             Rx   d 8 BA 03 00 32 00 50 00 04
 190.771020 1  300             Rx   d 8 BB 03 00 32 00 51 00 04
 190.970749 1  300             Rx   d 8 BC 03 00 32 00 50 00 04
 191.048999 1  320             Rx   d 8 1B 00 00 08 00 00 00 00
 191.169872 1  300             Rx   d 8 BD 03 00 32 00 00 00 04
 191.370609 1  300             Rx   d 8 BE 03 00 32 00 50 00 04
 191.570690 1  300             Rx   d 8 BF 03 00 32 00 50 00 04
 191.770804 1  300             Rx   d 8 C0 03 00 32 00 51 00 04
 191.969763 1  300             Rx   d 8 C1 03 00 32 00 00 00 04
 192.049046 1  320             Rx   d 8 1C 00 00 09 00 00 00 00
 192.170074 1  300             Rx   d 8 C2 03 00 32 00 50 00 04
 192.370024 1  300             Rx   d 8 C3 03 00 32 00 50 00 04
 192.569868 1  300             Rx   d 8 C4 03 00 32 00 50 00 04
 192.770359 1  300             Rx   d 8 C5 03 00 32 00 51 00 04
 192.969810 1  300             Rx   d 8 C6 03 00 32 00 50 00 04
 193.048986 1  320             Rx   d 8 1B 00 00 0A 00 00 00 00
 193.169916 1  300             Rx   d 8 C7 03 00 32 00 50 00 04
 193.368703 1  300             Rx   d 8 C8 03 00 32 00 00 00 04
 193.569874 1  300             Rx   d 8 C9 03 00 32 00 50 00 04
 193.769505 1  300             Rx   d 8 CA 03 00 32 00 50 00 04
 193.969709 1  300             Rx   d 8 CB 03 00 32 00 50 00 04
 194.048942 1  320             Rx   d 8 1C 00 00 0B 00 00 00 00
 194.169545 1  300             Rx   d 8 CC 03 00 32 00 50 00 04
 194.369389 1  300             Rx   d 8 CD 03 00 32 00 50 00 04
 194.569659 1  300             Rx   d 8 CE 03 00 32 00 50 00 04
 194.769576 1  300             Rx   d 8 CF 03 00 32 00 51 00 04
 194.968748 1  300             Rx   d 8 D0 03 00 32 00 00 00 04
 195.048948 1  320             Rx   d 8 1C 00 00 0C 00 00 00 00
 195.168977 1  300             Rx   d 8 D1 03 00 32 00 50 00 04
 195.368305 1  300             Rx   d 8 D2 03 00 32 00 50 00 04
 195.569009 1  300             Rx   d 8 D3 03 00 32 00 50 00 04
 195.769213 1  300             Rx   d 8 D4 03 00 32 00 51 00 04
 195.968852 1  300             Rx   d 8 D5 03 00 32 00 50 00 04
 196.048863 1  320             Rx   d 8 1B 00 00 0A 00 00 00 00
 196.168876 1  300             Rx   d 8 D6 03 00 32 00 50 00 04
 196.367802 1  300             Rx   d 8 D7 03 00 32 00 50 00 04
 196.568621 1  300             Rx   d 8 D8 03 00 32 00 50 00 04
 196.769210 1  300             Rx   d 8 D9 03 00 32 00 51 00 04
 196.968768 1  300             Rx   d 8 DA 03 00 32 00 50 00 04
 197.049008 1  320             Rx   d 8 1D 00 00 08 00 00 00 00
 197.168611 1  300             Rx   d 8 DB 03 00 32 00 50 00 04
 197.367726 1  300             Rx   d 8 DC 03 00 32 00 50 00 04
 197.568291 1  300             Rx   d 8 DD 03 00 32 00 50 00 04
 197.768626 1  300             Rx   d 8 DE 03 01 32 00 51 00 04
 197.769233 1  310             Rx   d 8 0E 80 91 F2 16 EC C0 02
 197.968224 1  300             Rx   d 8 DF 03 00 32 00 50 00 04
 198.048973 1  320             Rx   d 8 1C 00 00 08 00 00 00 00
 198.168076 1  300             Rx   d 8 E0 03 00 32 00 50 00 04
 198.367494 1  300             Rx   d 8 E1 03 00 32 00 50 00 04
 198.568067 1  300             Rx   d 8 E2 03 00 32 00 50 00 04
 198.768296 1  300             Rx   d 8 E3 03 00 32 00 51 00 04
 198.967804 1  300             Rx   d 8 E4 03 00 32 00 50 00 04
 199.048946 1  320             Rx   d 8 1C 00 00 09 00 00 00 00
 199.167795 1  300             Rx   d 8 E5 03 00 32 00 50 00 04
 199.367442 1  300             Rx   d 8 E6 03 00 32 00 50 00 04
 199.567712 1  300             Rx   d 8 E7 03 00 32 00 50 00 04
 199.767556 1  300             Rx   d 8 E8 03 00 32 00 50 00 04
 199.967556 1  300             Rx   d 8 E9 03 00 32 00 50 00 04
 200.048959 1  320             Rx   d 8 1C 00 00 09 00 00 00 00
 200.167801 1  300             Rx   d 8 EA 03 00 32 00 50 00 04
 200.367260 1  300             Rx   d 8 EB 03 00 32 00 50 00 04
 200.567071 1  300             Rx   d 8 EC 03 00 32 00 50 00 04
 200.767570 1  300             Rx   d 8 ED 03 00 32 00 51 00 04
 200.967029 1  300             Rx   d 8 EE 03 00 32 00 50 00 04
 201.048957 1  320             Rx   d 8 1C 00 00 0E 00 00 00 00
 201.166979 1  300             Rx   d 8 EF 03 00 32 00 50 00 04
 201.366807 1  300             Rx   d 8 F0 03 00 32 00 50 00 04
 201.566831 1  300             Rx   d 8 F1 03 00 32 00 50 00 04
 201.766846 1  300             Rx   d 8 F2 03 00 32 00 51 00 04
 201.966625 1  300             Rx   d 8 F3 03 00 32 00 50 00 04
 202.048922 1  320             Rx   d 8 1B 00 00 0A 00 00 00 00
 202.166477 1  300             Rx   d 8 F4 03 00 32 00 50 00 04
 202.366657 1  300             Rx   d 8 F5 03 00 32 00 50 00 04
 202.566476 1  300             Rx   d 8 F6 03 00 32 00 50 00 04
 202.767032 1  300             Rx   d 8 F7 03 00 32 00 51 00 04
 202.966409 1  300             Rx   d 8 F8 03 00 32 00 50 00 04
 203.048935 1  320             Rx   d 8 1B 00 00 0C 00 00 00 00
 203.166368 1  300             Rx   d 8 F9 03 00 32 00 50 00 04
 203.366244 1  300             Rx   d 8 FA 03 00 32 00 50 00 04
 203.566121 1  300             Rx   d 8 FB 03 00 32 00 50 00 04
 203.766555 1  300             Rx   d 8 FC 03 00 32 00 51 00 04
 203.966145 1  300             Rx   d 8 FD 03 00 32 00 50 00 04
 204.048941 1  320             Rx   d 8 1C 00 00 08 00 00 00 00
 204.165890 1  300             Rx   d 8 FE 03 00 32 00 50 00 04
 204.365865 1  300             Rx   d 8 FF 03 00 32 00 50 00 04
 204.565848 1  300             Rx   d 8 00 04 00 32 00 50 00 04
 204.766200 1  300             Rx   d 8 01 04 00 32 00 51 00 04
 204.965626 1  300             Rx   d 8 02 04 00 32 00 50 00 04
 205.048922 1  320             Rx   d 8 1C 00 00 09 00 00 00 00
 205.165740 1  300             Rx   d 8 03 04 00 32 00 50 00 04
 205.365510 1  300             Rx   d 8 04 04 00 32 00 50 00 04
 205.565477 1  300             Rx   d 8 05 04 00 32 00 50 00 04
 205.765738 1  300             Rx   d 8 06 04 00 32 00 51 00 04
 205.965320 1  300             Rx   d 8 07 04 00 32 00 50 00 04
 206.048928 1  320             Rx   d 8 1B 00 00 08 00 00 00 00
 206.165606 1  300             Rx   d 8 08 04 00 32 00 50 00 04
 206.365196 1  300             Rx   d 8 09 04 00 32 00 50 00 04
 206.564811 1  300             Rx   d 8 0A 04 00 32 00 50 00 04
 206.765081 1  300             Rx   d 8 0B 04 00 32 00 50 00 04
 206.964826 1  300             Rx   d 8 0C 04 00 32 00 50 00 04
 207.048917 1  320             Rx   d 8 1B 00 00 08 00 00 00 00
 207.164867 1  300             Rx   d 8 0D 04 00 32 00 50 00 04
 207.364760 1  300             Rx   d 8 0E 04 00 32 00 50 00 04
 207.564841 1  300             Rx   d 8 0F 04 00 32 00 50 00 04
 207.763800 1  300             Rx   d 8 10 04 00 32 00 00 00 04
 207.964602 1  300             Rx   d 8 11 04 00 32 00 50 00 04
 208.048914 1  320             Rx   d 8 1B 00 00 0C 00 00 00 00
 208.164782 1  300             Rx   d 8 12 04 00 32 00 50 00 04
 208.364470 1  300             Rx   d 8 13 04 00 32 00 50 00 04
 208.564462 1  300             Rx   d 8 14 04 00 32 00 50 00 04
 208.764617 1  300             Rx   d 8 15 04 00 32 00 51 00 04
 208.964297 1  300             Rx   d 8 16 04 00 32 00 50 00 04
 209.048920 1  320             Rx   d 8 1C 00 00 0B 00 00 00 00
 209.163854 1  300             Rx   d 8 17 04 00 32 00 00 00 04
 209.364115 1  300             Rx   d 8 18 04 00 32 00 50 00 04
 209.563943 1  300             Rx   d 8 19 04 00 32 00 50 00 04
 209.764778 1  300             Rx   d 8 1A 04 00 32 00 51 00 04
 209.963745 1  300             Rx   d 8 1B 04 00 32 00 50 00 04
 210.048909 1  320             Rx   d 8 1A 00 00 0C 00 00 00 00
 210.163671 1  300             Rx   d 8 1C 04 00 32 00 00 00 04
 210.363679 1  300             Rx   d 8 1D 04 00 32 00 50 00 04
 210.563719 1  300             Rx   d 8 1E 04 00 32 00 50 00 04
 210.764481 1  300             Rx   d 8 1F 04 00 32 00 51 00 04
 210.963792 1  300             Rx   d 8 20 04 00 32 00 50 00 04
 211.048890 1  320             Rx   d 8 1B 00 00 08 00 00 00 00
 211.163521 1  300             Rx   d 8 21 04 00 32 00 50 00 04
 211.363562 1  300             Rx   d 8 22 04 00 32 00 50 00 04
 211.562553 1  300             Rx   d 8 23 04 00 32 00 50 00 04
 211.762971 1  300             Rx   d 8 24 04 00 32 00 50 00 04
 211.962462 1  300             Rx   d 8 25 04 00 32 00 00 00 04
 212.048904 1  320             Rx   d 8 1B 00 00 08 00 00 00 00
 212.163215 1  300             Rx   d 8 26 04 00 32 00 50 00 04
 212.362854 1  300             Rx   d 8 27 04 00 32 00 50 00 04
 212.562166 1  300             Rx   d 8 28 04 00 32 00 50 00 04
 212.762747 1  300             Rx   d 8 29 04 00 32 00 50 00 04
 212.962378 1  300             Rx   d 8 2A 04 00 32 00 50 00 04
 213.048869 1  320             Rx   d 8 1B 00 00 08 00 00 00 00
 213.162738 1  300             Rx   d 8 2B 04 00 32 00 50 00 04
 213.362508 1  300             Rx   d 8 2C 04 00 32 00 50 00 04
 213.561647 1  300             Rx   d 8 2D 04 00 32 00 50 00 04
 213.761499 1  300             Rx   d 8 2E 04 00 32 00 50 00 04
 213.962564 1  300             Rx   d 8 2F 04 00 32 00 50 00 04
 214.048866 1  320             Rx   d 8 1A 00 00 08 00 00 00 00
 214.162801 1  300             Rx   d 8 30 04 00 32 00 50 00 04
 214.362268 1  300             Rx   d 8 31 04 00 32 00 50 00 04
 214.561358 1  300             Rx   d 8 32 04 00 32 00 50 00 04
 214.761841 1  300             Rx   d 8 33 04 00 32 00 00 00 04
 214.961283 1  300             Rx   d 8 34 04 00 32 00 50 00 04
 215.048905 1  320             Rx   d 8 15 00 00 09 00 00 00 00
 215.161274 1  300             Rx   d 8 35 04 00 32 00 50 00 04
 215.362036 1  300             Rx   d 8 36 04 00 32 00 50 00 04
 215.561101 1  300             Rx   d 8 37 04 00 32 00 00 00 04
 215.761895 1  300             Rx   d 8 38 04 00 32 00 50 00 04
 215.961707 1  300             Rx   d 8 39 04 00 32 00 50 00 04
 216.048828 1  320             Rx   d 8 1B 00 00 0E 00 00 00 00
 216.161673 1  300             Rx   d 8 3A 04 00 32 00 50 00 04
 216.361648 1  300             Rx   d 8 3B 04 00 32 00 50 00 04
 216.561558 1  300             Rx   d 8 3C 04 00 32 00 50 00 04
 216.761877 1  300             Rx   d 8 3D 04 00 32 00 51 00 04
 216.961229 1  300             Rx   d 8 3E 04 00 32 00 50 00 04
 217.048851 1  320             Rx   d 8 1C 00 00 0B 00 00 00 00
 217.161310 1  300             Rx   d 8 3F 04 00 32 00 50 00 04
 217.361449 1  300             Rx   d 8 40 04 00 32 00 50 00 04
 217.561235 1  300             Rx   d 8 41 04 00 32 00 50 00 04
 217.761276 1  300             Rx   d 8 42 04 00 32 00 50 00 04
 217.961079 1  300             Rx   d 8 43 04 00 32 00 50 00 04
 218.048848 1  320             Rx   d 8 1B 00 00 0A 00 00 00 00
 218.160988 1  300             Rx   d 8 44 04 00 32 00 50 00 04
 218.360840 1  300             Rx   d 8 45 04 00 32 00 50 00 04
 218.560700 1  300             Rx   d 8 46 04 00 32 00 50 00 04
 218.760970 1  300             Rx   d 8 47 04 00 32 00 50 00 04
 218.960495 1  300             Rx   d 8 48 04 00 32 00 50 00 04
 219.048862 1  320             Rx   d 8 1C 00 00 08 00 00 00 00
 219.160576 1  300             Rx   d 8 49 04 00 32 00 50 00 04
 219.360379 1  300             Rx   d 8 4A 04 00 32 00 50 00 04
 219.560501 1  300             Rx   d 8 4B 04 00 32 00 50 00 04
 219.760591 1  300             Rx   d 8 4C 04 00 32 00 51 00 04
 219.960222 1  300             Rx   d 8 4D 04 00 32 00 50 00 04
 220.048826 1  320             Rx   d 8 1A 00 00 08 00 00 00 00
 220.160491 1  300             Rx   d 8 4E 04 00 32 00 50 00 04
 220.360303 1  300             Rx   d 8 4F 04 00 32 00 50 00 04
 220.560015 1  300             Rx   d 8 50 04 00 32 00 50 00 04
 220.760293 1  300             Rx   d 8 51 04 00 32 00 51 00 04
 220.959916 1  300             Rx   d 8 52 04 00 32 00 50 00 04
 221.048767 1  320             Rx   d 8 1B 00 00 08 00 00 00 00
 221.159309 1  300             Rx   d 8 53 04 00 32 00 00 00 04
 221.359931 1  300             Rx   d 8 54 04 00 32 00 50 00 04
 221.559661 1  300             Rx   d 8 55 04 00 32 00 50 00 04
 221.760078 1  300             Rx   d 8 56 04 00 32 00 51 00 04
 221.959324 1  300             Rx   d 8 57 04 00 32 00 50 00 04
 222.048830 1  320             Rx   d 8 1B 00 00 08 00 00 00 00
 222.159512 1  300             Rx   d 8 58 04 00 32 00 50 00 04
 222.359642 1  300             Rx   d 8 59 04 00 32 00 50 00 04
 222.559289 1  300             Rx   d 8 5A 04 00 32 00 50 00 04
 222.759649 1  300             Rx   d 8 5B 04 00 32 00 50 00 04
 222.959157 1  300             Rx   d 8 5C 04 00 32 00 50 00 04
 223.048769 1  320             Rx   d 8 1C 00 00 0A 00 00 00 00
 223.159034 1  300             Rx   d 8 5D 04 00 32 00 50 00 04
 223.358829 1  300             Rx   d 8 5E 04 00 32 00 50 00 04
 223.559172 1  300             Rx   d 8 5F 04 00 32 00 50 00 04
 223.759016 1  300             Rx   d 8 60 04 00 32 00 50 00 04
 223.958704 1  300             Rx   d 8 61 04 00 32 00 50 00 04
 224.048775 1  320             Rx   d 8 1A 00 00 0C 00 00 00 00
 224.158597 1  300             Rx   d 8 62 04 00 32 00 50 00 04
 224.358662 1  300             Rx   d 8 63 04 00 32 00 50 00 04
 224.557785 1  300             Rx   d 8 64 04 00 32 00 00 00 04
 224.758604 1  300             Rx   d 8 65 04 00 32 00 50 00 04
 224.958423 1  300             Rx   d 8 66 04 00 32 00 50 00 04
 225.048781 1  320             Rx   d 8 1B 00 00 0C 00 00 00 00
 225.158537 1  300             Rx   d 8 67 04 00 32 00 50 00 04
 225.358520 1  300             Rx   d 8 68 04 00 32 00 50 00 04
 225.558217 1  300             Rx   d 8 69 04 00 32 00 50 00 04
 225.758331 1  300             Rx   d 8 6A 04 00 32 00 50 00 04
 225.958085 1  300             Rx   d 8 6B 04 00 32 00 50 00 04
 226.048778 1  320             Rx   d 8 1C 00 00 09 00 00 00 00
 226.158231 1  300             Rx   d 8 6C 04 00 32 00 50 00 04
 226.358075 1  300             Rx   d 8 6D 04 00 32 00 50 00 04
 226.557927 1  300             Rx   d 8 6E 04 00 32 00 50 00 04
 226.757845 1  300             Rx   d 8 6F 04 00 32 00 50 00 04
 226.957779 1  300             Rx   d 8 70 04 00 32 00 50 00 04
 227.048768 1  320             Rx   d 8 1C 00 00 09 00 00 00 00
 227.157729 1  300             Rx   d 8 71 04 00 32 00 50 00 04
 227.357778 1  300             Rx   d 8 72 04 00 32 00 50 00 04
 227.557851 1  300             Rx   d 8 73 04 00 32 00 50 00 04
 227.756843 1  300             Rx   d 8 74 04 00 32 00 50 00 04
 227.957490 1  300             Rx   d 8 75 04 00 32 00 50 00 04
 228.048740 1  320             Rx   d 8 1C 00 00 08 00 00 00 00
 228.157489 1  300             Rx   d 8 76 04 00 32 00 50 00 04
 228.357284 1  300             Rx   d 8 77 04 00 32 00 50 00 04
 228.557283 1  300             Rx   d 8 78 04 00 32 00 50 00 04
 228.756980 1  300             Rx   d 8 79 04 00 32 00 50 00 04
 228.957160 1  300             Rx   d 8 7A 04 00 32 00 50 00 04
 229.048738 1  320             Rx   d 8 1C 00 00 08 00 00 00 00
 229.157306 1  300             Rx   d 8 7B 04 00 32 00 50 00 04
 229.356987 1  300             Rx   d 8 7C 04 00 32 00 50 00 04
 229.556961 1  300             Rx   d 8 7D 04 00 32 00 50 00 04
 229.756117 1  300             Rx   d 8 7E 04 00 32 00 50 00 04
 229.956788 1  300             Rx   d 8 7F 04 00 32 00 50 00 04
 230.048776 1  320             Rx   d 8 1B 00 00 08 00 00 00 00
 230.156321 1  300             Rx   d 8 80 04 00 32 00 00 00 04
 230.356607 1  300             Rx   d 8 81 04 00 32 00 50 00 04
 230.556394 1  300             Rx   d 8 82 04 00 32 00 50 00 04
 230.755271 1  300             Rx   d 8 83 04 00 32 00 00 00 04
 230.956139 1  300             Rx   d 8 84 04 00 32 00 50 00 04
 231.048741 1  320             Rx   d 8 1A 00 00 0D 00 00 00 00
 231.156384 1  300             Rx   d 8 85 04 00 32 00 50 00 04
 231.356236 1  300             Rx   d 8 86 04 00 32 00 50 00 04
 231.556194 1  300             Rx   d 8 87 04 00 32 00 50 00 04
 231.756104 1  300             Rx   d 8 88 04 00 32 00 50 00 04
 231.955128 1  300             Rx   d 8 89 04 00 32 00 00 00 04
 232.048722 1  320             Rx   d 8 1C 00 00 0C 00 00 00 00
 232.156004 1  300             Rx   d 8 8A 04 00 32 00 50 00 04
 232.355734 1  300             Rx   d 8 8B 04 00 32 00 50 00 04
 232.555733 1  300             Rx   d 8 8C 04 00 32 00 50 00 04
 232.755724 1  300             Rx   d 8 8D 04 00 32 00 50 00 04
 232.955552 1  300             Rx   d 8 8E 04 00 32 00 50 00 04
 233.048744 1  320             Rx   d 8 1C 00 00 0B 00 00 00 00
 233.155584 1  300             Rx   d 8 8F 04 00 32 00 50 00 04
 233.355469 1  300             Rx   d 8 90 04 00 32 00 50 00 04
 233.555337 1  300             Rx   d 8 91 04 00 32 00 50 00 04
 233.755394 1  300             Rx   d 8 92 04 00 32 00 50 00 04
 233.955238 1  300             Rx   d 8 93 04 00 32 00 50 00 04
 234.048758 1  320             Rx   d 8 1C 00 00 09 00 00 00 00
 234.155393 1  300             Rx   d 8 94 04 00 32 00 50 00 04
 234.355319 1  300             Rx   d 8 95 04 00 32 00 50 00 04
 234.555130 1  300             Rx   d 8 96 04 00 32 00 50 00 04
 234.755064 1  300             Rx   d 8 97 04 00 32 00 50 00 04
 234.954981 1  300             Rx   d 8 98 04 00 32 00 50 00 04
 235.048698 1  320             Rx   d 8 1C 00 00 08 00 00 00 00
 235.154883 1  300             Rx   d 8 99 04 00 32 00 50 00 04
 235.354628 1  300             Rx   d 8 9A 04 00 32 00 50 00 04
 235.554628 1  300             Rx   d 8 9B 04 00 32 00 50 00 04
 235.754848 1  300             Rx   d 8 9C 04 00 32 00 50 00 04
 235.954545 1  300             Rx   d 8 9D 04 00 32 00 50 00 04
 236.048703 1  320             Rx   d 8 1C 00 00 08 00 00 00 00
 236.154585 1  300             Rx   d 8 9E 04 00 32 00 50 00 04
 236.354503 1  300             Rx   d 8 9F 04 00 32 00 50 00 04
 236.554412 1  300             Rx   d 8 A0 04 00 32 00 50 00 04
 236.754452 1  300             Rx   d 8 A1 04 00 32 00 50 00 04
 236.954133 1  300             Rx   d 8 A2 04 00 32 00 50 00 04
 237.048676 1  320             Rx   d 8 1C 00 00 08 00 00 00 00
 237.154247 1  300             Rx   d 8 A3 04 00 32 00 50 00 04
 237.354099 1  300             Rx   d 8 A4 04 00 32 00 50 00 04
 237.554049 1  300             Rx   d 8 A5 04 00 32 00 50 00 04
 237.753631 1  300             Rx   d 8 A6 04 00 32 00 50 00 04
 237.953884 1  300             Rx   d 8 A7 04 00 32 00 50 00 04
 238.048682 1  320             Rx   d 8 1C 00 00 0B 00 00 00 00
 238.153507 1  300             Rx   d 8 A8 04 00 32 00 50 00 04
 238.352646 1  300             Rx   d 8 A9 04 00 32 00 00 00 04
 238.553629 1  300             Rx   d 8 AA 04 00 32 00 50 00 04
 238.753645 1  300             Rx   d 8 AB 04 00 32 00 50 00 04
 238.953546 1  300             Rx   d 8 AC 04 00 32 00 50 00 04
 239.048589 1  320             Rx   d 8 1C 00 00 0D 00 00 00 00
 239.153414 1  300             Rx   d 8 AD 04 00 32 00 50 00 04
 239.353209 1  300             Rx   d 8 AE 04 00 32 00 50 00 04
 239.553356 1  300             Rx   d 8 AF 04 00 32 00 50 00 04
 239.753036 1  300             Rx   d 8 B0 04 00 32 00 50 00 04
 239.953199 1  300             Rx   d 8 B1 04 00 32 00 50 00 04
 240.048702 1  320             Rx   d 8 1B 00 00 0A 00 00 00 00
 240.153027 1  300             Rx   d 8 B2 04 00 32 00 50 00 04
 240.352993 1  300             Rx   d 8 B3 04 00 32 00 50 00 04
 240.553034 1  300             Rx   d 8 B4 04 00 32 00 50 00 04
 240.751935 1  300             Rx   d 8 B5 04 00 32 00 50 00 04
 240.952582 1  300             Rx   d 8 B6 04 00 32 00 50 00 04
 241.048674 1  320             Rx   d 8 1B 00 00 09 00 00 00 00
 241.152737 1  300             Rx   d 8 B7 04 00 32 00 50 00 04
 241.352532 1  300             Rx   d 8 B8 04 00 32 00 50 00 04
 241.552646 1  300             Rx   d 8 B9 04 00 32 00 50 00 04
 241.752441 1  300             Rx   d 8 BA 04 00 32 00 50 00 04
 241.952465 1  300             Rx   d 8 BB 04 00 32 00 50 00 04
 242.048688 1  320             Rx   d 8 1C 00 00 09 00 00 00 00
 242.152383 1  300             Rx   d 8 BC 04 00 32 00 50 00 04
 242.352538 1  300             Rx   d 8 BD 04 00 32 00 50 00 04
 242.552037 1  300             Rx   d 8 BE 04 00 32 00 50 00 04
 242.752151 1  300             Rx   d 8 BF 04 00 32 00 50 00 04
 242.951873 1  300             Rx   d 8 C0 04 00 32 00 50 00 04
 243.048702 1  320             Rx   d 8 1B 00 00 08 00 00 00 00
 243.151995 1  300             Rx   d 8 C1 04 00 32 00 50 00 04
 243.351814 1  300             Rx   d 8 C2 04 00 32 00 50 00 04
 243.551863 1  300             Rx   d 8 C3 04 00 32 00 50 00 04
 243.751707 1  300             Rx   d 8 C4 04 00 32 00 50 00 04
 243.951534 1  300             Rx   d 8 C5 04 00 32 00 50 00 04
 244.048658 1  320             Rx   d 8 1B 00 00 08 00 00 00 00
 244.151501 1  300             Rx   d 8 C6 04 00 32 00 50 00 04
 244.351517 1  300             Rx   d 8 C7 04 00 32 00 50 00 04
 244.551344 1  300             Rx   d 8 C8 04 00 32 00 50 00 04
 244.751442 1  300             Rx   d 8 C9 04 00 32 00 50 00 04
 244.950499 1  300             Rx   d 8 CA 04 00 32 00 50 00 04
 245.048631 1  320             Rx   d 8 1B 00 00 08 00 00 00 00
 245.151228 1  300             Rx   d 8 CB 04 00 32 00 50 00 04
 245.351301 1  300             Rx   d 8 CC 04 00 32 00 50 00 04
 245.550981 1  300             Rx   d 8 CD 04 00 32 00 50 00 04
 245.751071 1  300             Rx   d 8 CE 04 00 32 00 50 00 04
 245.950243 1  300             Rx   d 8 CF 04 00 32 00 50 00 04
 246.048596 1  320             Rx   d 8 1A 00 00 0C 00 00 00 00
 246.150759 1  300             Rx   d 8 D0 04 00 32 00 50 00 04
 246.350881 1  300             Rx   d 8 D1 04 00 32 00 50 00 04
 246.550716 1  300             Rx   d 8 D2 04 00 32 00 50 00 04
 246.750470 1  300             Rx   d 8 D3 04 00 32 00 50 00 04
 246.950175 1  300             Rx   d 8 D4 04 00 32 00 50 00 04
 247.048602 1  320             Rx   d 8 1A 00 00 0B 00 00 00 00
 247.150297 1  300             Rx   d 8 D5 04 00 32 00 50 00 04
 247.350461 1  300             Rx   d 8 D6 04 00 32 00 50 00 04
 247.549723 1  300             Rx   d 8 D7 04 00 32 00 00 00 04
 247.749231 1  300             Rx   d 8 D8 04 00 32 00 00 00 04
 247.950303 1  300             Rx   d 8 D9 04 00 32 00 50 00 04
 248.048632 1  320             Rx   d 8 19 00 00 0C 00 00 00 00
 248.149926 1  300             Rx   d 8 DA 04 00 32 00 50 00 04
 248.350114 1  300             Rx   d 8 DB 04 00 32 00 50 00 04
 248.549794 1  300             Rx   d 8 DC 04 00 32 00 50 00 04
 248.749883 1  300             Rx   d 8 DD 04 00 32 00 50 00 04
 248.949924 1  300             Rx   d 8 DE 04 00 32 00 50 00 04
 249.048515 1  320             Rx   d 8 1B 00 00 09 00 00 00 00
 249.149669 1  300             Rx   d 8 DF 04 00 32 00 50 00 04
 249.349735 1  300             Rx   d 8 E0 04 00 32 00 50 00 04
 249.549595 1  300             Rx   d 8 E1 04 00 32 00 50 00 04
 249.749668 1  300             Rx   d 8 E2 04 00 32 00 50 00 04
 249.949438 1  300             Rx   d 8 E3 04 00 32 00 50 00 04
 250.048545 1  320             Rx   d 8 1A 00 00 08 00 00 00 00
 250.149421 1  300             Rx   d 8 E4 04 00 32 00 50 00 04
 250.349347 1  300             Rx   d 8 E5 04 00 32 00 50 00 04
 250.549289 1  300             Rx   d 8 E6 04 00 32 00 50 00 04
 250.748436 1  300             Rx   d 8 E7 04 00 32 00 00 00 04
 250.949034 1  300             Rx   d 8 E8 04 00 32 00 50 00 04
 251.048452 1  320             Rx   d 8 1B 00 00 08 00 00 00 00
 251.148993 1  300             Rx   d 8 E9 04 00 32 00 50 00 04
 251.348935 1  300             Rx   d 8 EA 04 00 32 00 50 00 04
 251.548795 1  300             Rx   d 8 EB 04 00 32 00 50 00 04
 251.748688 1  300             Rx   d 8 EC 04 00 32 00 50 00 04
 251.948933 1  300             Rx   d 8 ED 04 00 32 00 50 00 04
 252.048450 1  320             Rx   d 8 1A 00 00 08 00 00 00 00
 252.148638 1  300             Rx   d 8 EE 04 00 32 00 50 00 04
 252.348572 1  300             Rx   d 8 EF 04 00 32 00 50 00 04
 252.548653 1  300             Rx   d 8 F0 04 00 32 00 50 00 04
 252.747891 1  300             Rx   d 8 F1 04 00 32 00 00 00 04
 252.948374 1  300             Rx   d 8 F2 04 00 32 00 50 00 04
 253.048496 1  320             Rx   d 8 1B 00 00 08 00 00 00 00
 253.148176 1  300             Rx   d 8 F3 04 00 32 00 50 00 04
 253.347725 1  300             Rx   d 8 F4 04 00 32 00 50 00 04
 253.548265 1  300             Rx   d 8 F5 04 00 32 00 50 00 04
 253.747700 1  300             Rx   d 8 F6 04 00 32 00 50 00 04
 253.948781 1  300             Rx   d 8 F7 04 00 32 00 50 00 04
 254.048371 1  320             Rx   d 8 1A 00 00 0D 00 00 00 00
 254.147273 1  300             Rx   d 8 F8 04 00 32 00 50 00 04
 254.347346 1  300             Rx   d 8 F9 04 00 32 00 50 00 04
 254.547812 1  300             Rx   d 8 FA 04 00 32 00 50 00 04
 254.747214 1  300             Rx   d 8 FB 04 00 32 00 50 00 04
 254.948131 1  300             Rx   d 8 FC 04 00 32 00 51 00 04
 255.048507 1  320             Rx   d 8 15 00 00 0B 00 00 00 00
 255.147221 1  300             Rx   d 8 FD 04 00 32 00 50 00 04
 255.346573 1  300             Rx   d 8 FE 04 00 32 00 00 00 04
 255.547507 1  300             Rx   d 8 FF 04 00 32 00 50 00 04
 255.747252 1  300             Rx   d 8 00 05 00 32 00 50 00 04
 255.947145 1  300             Rx   d 8 01 05 00 32 00 50 00 04
 256.048538 1  320             Rx   d 8 1B 00 00 0C 00 00 00 00
 256.146596 1  300             Rx   d 8 02 05 00 32 00 50 00 04
 256.346555 1  300             Rx   d 8 03 05 00 32 00 50 00 04
 256.546931 1  300             Rx   d 8 04 05 00 32 00 50 00 04
 256.746578 1  300             Rx   d 8 05 05 00 32 00 50 00 04
 256.946578 1  300             Rx   d 8 06 05 00 32 00 50 00 04
 257.048568 1  320             Rx   d 8 16 00 00 08 00 00 00 00
 257.146274 1  300             Rx   d 8 07 05 00 32 00 50 00 04
 257.346937 1  300             Rx   d 8 08 05 00 32 00 50 00 04
 257.546551 1  300             Rx   d 8 09 05 00 32 00 50 00 04
 257.746649 1  300             Rx   d 8 0A 05 00 32 00 50 00 04
 257.946837 1  300             Rx   d 8 0B 05 00 32 00 51 00 04
 258.048467 1  320             Rx   d 8 1A 00 00 08 00 00 00 00
 258.145747 1  300             Rx   d 8 0C 05 00 32 00 50 00 04
 258.346402 1  300             Rx   d 8 0D 05 00 32 00 50 00 04
