date Tue Oct 06 22:37:35.410 2026
base hex  timestamps absolute
internal events logged
Begin Triggerblock Tue Oct 06 22:38:03.582 2026
 0.000000 Start of measurement
 0.000000 1  300             Rx   d 8 00 00 00 00 00 00 00 00
 0.001147 1  320             Rx   d 8 00 00 00 79 00 00 00 00
 0.189718 1  300             Rx   d 8 01 00 00 32 00 00 00 00
 0.354681 1  300             Rx   d 8 02 00 00 32 00 6A 00 00
 0.517202 1  300             Rx   d 8 03 00 01 32 00 00 00 00
 0.517939 1  310             Rx   d 8 03 01 59 7D EC 99 5F 3D
 0.717824 1  300             Rx   d 8 04 00 01 32 00 46 00 00
 0.718774 1  310             Rx   d 8 04 81 99 7D EC 8D FF 3C
 0.917397 1  300             Rx   d 8 05 00 00 32 00 46 00 00
 1.117422 1  300             Rx   d 8 06 00 00 32 00 46 00 00
 1.118708 1  320             Rx   d 8 1C 00 00 0A 00 00 00 00
 1.316684 1  300             Rx   d 8 07 00 00 32 00 00 00 00
 1.517035 1  300             Rx   d 8 08 00 01 32 00 46 00 00
 1.517715 1  310             Rx   d 8 08 83 19 7D ED 8D FF 3C
 1.716928 1  300             Rx   d 8 09 00 00 32 00 45 00 00
 1.916797 1  300             Rx   d 8 0A 00 00 32 00 46 00 00
 2.116698 1  300             Rx   d 8 0B 00 00 32 00 46 00 00
 2.316624 1  300             Rx   d 8 0C 00 00 32 00 46 00 00
 2.317894 1  320             Rx   d 8 1C 00 00 09 00 00 00 00
 2.516656 1  300             Rx   d 8 0D 00 00 32 00 46 00 00
 2.716557 1  300             Rx   d 8 0E 00 00 32 00 45 00 00
 2.916532 1  300             Rx   d 8 0F 00 00 32 00 46 00 00
 3.116270 1  300             Rx   d 8 10 00 00 32 00 46 00 00
 3.317129 1  300             Rx   d 8 11 00 00 32 00 46 00 00
 3.318415 1  320             Rx   d 8 1D 00 00 08 00 00 00 00
 3.516121 1  300             Rx   d 8 12 00 00 32 00 46 00 00
 3.716285 1  300             Rx   d 8 13 00 00 32 00 46 00 00
 3.915964 1  300             Rx   d 8 14 00 00 32 00 46 00 00
 4.115939 1  300             Rx   d 8 15 00 00 32 00 45 00 00
 4.315726 1  300             Rx   d 8 16 00 00 32 00 46 00 00
 4.515717 1  300             Rx   d 8 17 00 00 32 00 45 00 00
 4.516954 1  320             Rx   d 8 1C 00 00 0C 00 00 00 00
 4.715872 1  300             Rx   d 8 18 00 00 32 00 45 00 00
 4.915872 1  300             Rx   d 8 19 00 00 32 00 46 00 00
 5.115666 1  300             Rx   d 8 1A 00 00 32 00 45 00 00
 5.315723 1  300             Rx   d 8 1B 00 00 32 00 46 00 00
 5.514879 1  300             Rx   d 8 1C 00 00 32 00 00 00 00
 5.715288 1  300             Rx   d 8 1D 00 00 32 00 45 00 00
 5.716435 1  320             Rx   d 8 1C 00 00 0C 00 00 00 00
 5.915427 1  300             Rx   d 8 1E 00 00 32 00 46 00 00
 6.115140 1  300             Rx   d 8 1F 00 00 32 00 46 00 00
 6.314566 1  300             Rx   d 8 20 00 00 32 00 00 00 00
 6.514369 1  300             Rx   d 8 21 00 00 32 00 46 00 00
 6.714606 1  300             Rx   d 8 22 00 00 32 00 46 00 00
 6.914966 1  300             Rx   d 8 23 00 00 32 00 45 00 00
 6.916153 1  320             Rx   d 8 19 00 00 0A 00 00 00 00
 7.115039 1  300             Rx   d 8 24 00 00 32 00 46 00 00
 7.314211 1  300             Rx   d 8 25 00 00 32 00 46 00 00
 7.513899 1  300             Rx   d 8 26 00 00 32 00 45 00 00
 7.714529 1  300             Rx   d 8 27 00 00 32 00 45 00 00
 7.915053 1  300             Rx   d 8 28 00 00 32 00 45 00 00
 7.916454 1  320             Rx   d 8 1C 00 00 08 00 00 00 00
 8.114504 1  300             Rx   d 8 29 00 00 32 00 45 00 00
 8.313520 1  300             Rx   d 8 2A 00 00 32 00 45 00 00
 8.514314 1  300             Rx   d 8 2B 00 00 32 00 45 00 00
 8.714387 1  300             Rx   d 8 2C 00 00 32 00 45 00 00
 8.914182 1  300             Rx   d 8 2D 00 00 32 00 46 00 00
 9.114116 1  300             Rx   d 8 2E 00 00 32 00 46 00 00
 9.115296 1  320             Rx   d 8 1B 00 00 09 00 00 00 00
 9.313239 1  300             Rx   d 8 2F 00 00 32 00 46 00 00
 9.513353 1  300             Rx   d 8 30 00 00 32 00 00 00 00
 9.713926 1  300             Rx   d 8 31 00 00 32 00 45 00 00
 9.914024 1  300             Rx   d 8 32 00 00 32 00 45 00 00
 10.113811 1  300             Rx   d 8 33 00 00 32 00 46 00 00
 10.312892 1  300             Rx   d 8 34 00 00 32 00 46 00 00
 10.313843 1  320             Rx   d 8 18 00 00 09 00 00 00 00
 10.513334 1  300             Rx   d 8 35 00 00 32 00 45 00 00
 10.713514 1  300             Rx   d 8 36 00 00 32 00 45 00 00
 10.913702 1  300             Rx   d 8 37 00 00 32 00 45 00 00
 11.113423 1  300             Rx   d 8 38 00 00 32 00 45 00 00
 11.312636 1  300             Rx   d 8 39 00 00 32 00 46 00 00
 11.513029 1  300             Rx   d 8 3A 00 00 32 00 45 00 00
 11.514159 1  320             Rx   d 8 1A 00 00 0A 00 00 00 00
 11.713339 1  300             Rx   d 8 3B 00 00 32 00 46 00 00
 11.913101 1  300             Rx   d 8 3C 00 00 32 00 45 00 00
 12.113215 1  300             Rx   d 8 3D 00 00 32 00 46 00 00
 12.312846 1  300             Rx   d 8 3E 00 00 32 00 46 00 00
 12.512207 1  300             Rx   d 8 3F 00 00 32 00 46 00 00
 12.712944 1  300             Rx   d 8 40 00 00 32 00 46 00 00
 12.714148 1  320             Rx   d 8 1C 00 00 0B 00 00 00 00
 12.912853 1  300             Rx   d 8 41 00 00 32 00 46 00 00
 13.112746 1  300             Rx   d 8 42 00 00 32 00 46 00 00
 13.312664 1  300             Rx   d 8 43 00 00 32 00 46 00 00
 13.512401 1  300             Rx   d 8 44 00 00 32 00 45 00 00
 13.712532 1  300             Rx   d 8 45 00 00 32 00 46 00 00
 13.912285 1  300             Rx   d 8 46 00 00 32 00 45 00 00
 13.913473 1  320             Rx   d 8 1B 00 00 0C 00 00 00 00
 14.112137 1  300             Rx   d 8 47 00 00 32 00 45 00 00
 14.312325 1  300             Rx   d 8 48 00 00 32 00 46 00 00
 14.512341 1  300             Rx   d 8 49 00 00 32 00 46 00 00
 14.712160 1  300             Rx   d 8 4A 00 00 32 00 45 00 00
 14.912029 1  300             Rx   d 8 4B 00 00 32 00 45 00 00
 15.111938 1  300             Rx   d 8 4C 00 00 32 00 45 00 00
 15.113183 1  320             Rx   d 8 1C 00 00 08 00 00 00 00
 15.312011 1  300             Rx   d 8 4D 00 00 32 00 45 00 00
 15.511953 1  300             Rx   d 8 4E 00 00 32 00 46 00 00
 15.711822 1  300             Rx   d 8 4F 00 00 32 00 45 00 00
 15.911862 1  300             Rx   d 8 50 00 00 32 00 45 00 00
 16.111813 1  300             Rx   d 8 51 00 00 32 00 46 00 00
 16.311222 1  300             Rx   d 8 52 00 00 32 00 45 00 00
 16.312476 1  320             Rx   d 8 1D 00 00 09 00 00 00 00
 16.511566 1  300             Rx   d 8 53 00 00 32 00 45 00 00
 16.711549 1  300             Rx   d 8 54 00 00 32 00 46 00 00
 16.911458 1  300             Rx   d 8 55 00 00 32 00 45 00 00
 17.111335 1  300             Rx   d 8 56 00 00 32 00 46 00 00
 17.311367 1  300             Rx   d 8 57 00 00 32 00 46 00 00
 17.312522 1  320             Rx   d 8 1C 00 00 09 00 00 00 00
 17.511105 1  300             Rx   d 8 58 00 00 32 00 46 00 00
 17.711137 1  300             Rx   d 8 59 00 00 32 00 46 00 00
 17.911030 1  300             Rx   d 8 5A 00 00 32 00 45 00 00
 18.111013 1  300             Rx   d 8 5B 00 00 32 00 46 00 00
 18.310333 1  300             Rx   d 8 5C 00 00 32 00 00 00 00
End TriggerBlock
