date Tue Oct 06 22:59:44.675 2026
base hex  timestamps absolute
internal events logged
Begin Triggerblock Tue Oct 06 23:00:15.775 2026
 0.000000 Start of measurement
 0.000000 1  300             Rx   d 8 00 00 00 00 00 4C 01 00
 0.000770 1  300             Rx   d 8 01 00 00 32 00 AF 00 00
 0.117293 1  300             Rx   d 8 02 00 01 32 00 6A 00 00
 0.117965 1  310             Rx   d 8 02 81 19 7D EB 95 2F 3D
 0.281371 1  300             Rx   d 8 03 00 01 32 00 46 00 00
 0.282108 1  310             Rx   d 8 03 01 1B 7D EB 95 1F 3D
 0.481272 1  300             Rx   d 8 04 00 01 32 00 46 00 00
 0.481960 1  310             Rx   d 8 04 81 59 7D EB 99 2F 3D
 0.681116 1  300             Rx   d 8 05 00 01 32 00 46 00 00
 0.681599 1  310             Rx   d 8 05 81 99 7D ED 99 AF 3C
 0.880976 1  300             Rx   d 8 06 00 01 32 00 46 00 00
 0.881541 1  310             Rx   d 8 06 01 9B 7D EC 91 BF 3C
 0.882573 1  320             Rx   d 8 1D 00 00 0A 00 01 00 00
 1.081123 1  300             Rx   d 8 07 00 01 32 00 46 00 00
 1.081844 1  310             Rx   d 8 07 81 99 7D EC 95 AF 3C
 1.280573 1  300             Rx   d 8 08 00 01 32 00 46 00 00
 1.281032 1  310             Rx   d 8 08 01 5C 7D EB 8D EF 3C
 1.480376 1  300             Rx   d 8 09 00 00 32 00 45 00 00
 1.680408 1  300             Rx   d 8 0A 00 00 32 00 46 00 00
 1.880449 1  300             Rx   d 8 0B 00 00 32 00 45 00 00
 2.080211 1  300             Rx   d 8 0C 00 00 32 00 45 00 00
 2.081399 1  320             Rx   d 8 1C 00 00 09 00 00 00 00
 2.280309 1  300             Rx   d 8 0D 00 00 32 00 46 00 00
 2.480071 1  300             Rx   d 8 0E 00 00 32 00 45 00 00
 2.679988 1  300             Rx   d 8 0F 00 00 32 00 46 00 00
 2.879513 1  300             Rx   d 8 10 00 00 32 00 45 00 00
 3.080094 1  300             Rx   d 8 11 00 00 32 00 46 00 00
 3.279905 1  300             Rx   d 8 12 00 00 32 00 45 00 00
 3.280937 1  320             Rx   d 8 1D 00 00 08 00 00 00 00
 3.479831 1  300             Rx   d 8 13 00 00 32 00 45 00 00
 3.679576 1  300             Rx   d 8 14 00 00 32 00 45 00 00
 3.879682 1  300             Rx   d 8 15 00 00 32 00 45 00 00
 4.079714 1  300             Rx   d 8 16 00 00 32 00 45 00 00
 4.279583 1  300             Rx   d 8 17 00 00 32 00 45 00 00
 4.479353 1  300             Rx   d 8 18 00 00 32 00 45 00 00
 4.480557 1  320             Rx   d 8 1D 00 00 0B 00 00 00 00
 4.679270 1  300             Rx   d 8 19 00 00 32 00 45 00 00
 4.879122 1  300             Rx   d 8 1A 00 00 32 00 45 00 00
 5.079245 1  300             Rx   d 8 1B 00 00 32 00 46 00 00
 5.278974 1  300             Rx   d 8 1C 00 00 32 00 45 00 00
 5.478252 1  300             Rx   d 8 1D 00 00 32 00 45 00 00
 5.678203 1  300             Rx   d 8 1E 00 00 32 00 45 00 00
 5.679374 1  320             Rx   d 8 1B 00 00 0B 00 00 00 00
 5.878907 1  300             Rx   d 8 1F 00 00 32 00 45 00 00
 6.078816 1  300             Rx   d 8 20 00 00 32 00 45 00 00
 6.278472 1  300             Rx   d 8 21 00 00 32 00 45 00 00
 6.478750 1  300             Rx   d 8 22 00 00 32 00 46 00 00
 6.678520 1  300             Rx   d 8 23 00 00 32 00 45 00 00
 6.679716 1  320             Rx   d 8 1C 00 00 0D 00 00 00 00
 6.877839 1  300             Rx   d 8 24 00 00 32 00 45 00 00
 7.078298 1  300             Rx   d 8 25 00 00 32 00 45 00 00
 7.277601 1  300             Rx   d 8 26 00 00 32 00 45 00 00
 7.478297 1  300             Rx   d 8 27 00 00 32 00 46 00 00
 7.697760 1  300             Rx   d 8 28 00 00 32 00 45 00 00
 7.878107 1  300             Rx   d 8 29 00 00 32 00 46 00 00
 7.879229 1  320             Rx   d 8 1B 00 00 08 00 00 00 00
 8.078049 1  300             Rx   d 8 2A 00 00 32 00 45 00 00
 8.278049 1  300             Rx   d 8 2B 00 00 32 00 46 00 00
 8.477844 1  300             Rx   d 8 2C 00 00 32 00 45 00 00
 8.677859 1  300             Rx   d 8 2D 00 00 32 00 45 00 00
 8.877728 1  300             Rx   d 8 2E 00 00 32 00 45 00 00
 9.077629 1  300             Rx   d 8 2F 00 00 32 00 45 00 00
 9.078800 1  320             Rx   d 8 1C 00 00 09 00 00 00 00
 9.277604 1  300             Rx   d 8 30 00 00 32 00 46 00 00
 9.477439 1  300             Rx   d 8 31 00 00 32 00 45 00 00
 9.697321 1  300             Rx   d 8 32 00 00 32 00 45 00 00
 9.877332 1  300             Rx   d 8 33 00 00 32 00 45 00 00
 10.077209 1  300             Rx   d 8 34 00 00 32 00 45 00 00
 10.277143 1  300             Rx   d 8 35 00 00 32 00 45 00 00
 10.278420 1  320             Rx   d 8 1C 00 00 08 00 00 00 00
 10.477093 1  300             Rx   d 8 36 00 00 32 00 45 00 00
 10.677043 1  300             Rx   d 8 37 00 00 32 00 45 00 00
 10.876297 1  300             Rx   d 8 38 00 00 32 00 45 00 00
 11.096850 1  300             Rx   d 8 39 00 00 32 00 46 00 00
 11.296678 1  300             Rx   d 8 3A 00 00 32 00 45 00 00
 11.476779 1  300             Rx   d 8 3B 00 00 32 00 45 00 00
 11.477762 1  320             Rx   d 8 19 00 00 08 00 00 00 00
 11.676770 1  300             Rx   d 8 3C 00 00 32 00 46 00 00
 11.876581 1  300             Rx   d 8 3D 00 00 32 00 46 00 00
 12.076605 1  300             Rx   d 8 3E 00 00 32 00 45 00 00
 12.276498 1  300             Rx   d 8 3F 00 00 32 00 45 00 00
 12.476301 1  300             Rx   d 8 40 00 00 32 00 45 00 00
 12.676530 1  300             Rx   d 8 41 00 00 32 00 45 00 00
 12.677546 1  320             Rx   d 8 1C 00 00 0D 00 00 00 00
 12.875252 1  300             Rx   d 8 42 00 00 32 00 45 00 00
 13.095928 1  300             Rx   d 8 43 00 00 32 00 45 00 00
 13.275931 1  300             Rx   d 8 44 00 00 32 00 45 00 00
 13.476020 1  300             Rx   d 8 45 00 00 32 00 45 00 00
 13.695861 1  300             Rx   d 8 46 00 00 32 00 45 00 00
 13.875216 1  300             Rx   d 8 47 00 00 32 00 45 00 00
 13.876306 1  320             Rx   d 8 17 00 00 0C 00 00 00 00
 14.075920 1  300             Rx   d 8 48 00 00 32 00 46 00 00
 14.275740 1  300             Rx   d 8 49 00 00 32 00 45 00 00
 14.475747 1  300             Rx   d 8 4A 00 00 32 00 45 00 00
 14.675632 1  300             Rx   d 8 4B 00 00 32 00 45 00 00
 14.874820 1  300             Rx   d 8 4C 00 00 32 00 46 00 00
 15.075574 1  300             Rx   d 8 4D 00 00 32 00 46 00 00
 15.076909 1  320             Rx   d 8 1B 00 00 09 00 00 00 00
 15.295193 1  300             Rx   d 8 4E 00 00 32 00 45 00 00
 15.475401 1  300             Rx   d 8 4F 00 00 32 00 45 00 00
 15.695028 1  300             Rx   d 8 50 00 00 32 00 45 00 00
 15.874384 1  300             Rx   d 8 51 00 00 32 00 45 00 00
 16.094970 1  300             Rx   d 8 52 00 00 32 00 45 00 00
 16.274981 1  300             Rx   d 8 53 00 00 32 00 45 00 00
 16.276169 1  320             Rx   d 8 16 00 00 08 00 00 00 00
 16.474915 1  300             Rx   d 8 54 00 00 32 00 45 00 00
 16.694829 1  300             Rx   d 8 55 00 00 32 00 45 00 00
 16.874234 1  300             Rx   d 8 56 00 00 32 00 45 00 00
 17.074905 1  300             Rx   d 8 57 00 00 32 00 45 00 00
 17.274675 1  300             Rx   d 8 58 00 00 32 00 45 00 00
 17.474732 1  300             Rx   d 8 59 00 00 32 00 45 00 00
 17.475977 1  320             Rx   d 8 1B 00 00 08 00 00 00 00
 17.674846 1  300             Rx   d 8 5A 00 00 32 00 46 00 00
 17.874641 1  300             Rx   d 8 5B 00 00 32 00 46 00 00
 18.075099 1  300             Rx   d 8 5C 00 00 32 00 45 00 00
 18.275000 1  300             Rx   d 8 5D 00 00 32 00 45 00 00
 18.474336 1  300             Rx   d 8 5E 00 00 32 00 45 00 00
 18.674221 1  300             Rx   d 8 5F 00 00 32 00 45 00 00
 18.675401 1  320             Rx   d 8 1D 00 00 09 00 00 00 00
 18.874245 1  300             Rx   d 8 60 00 00 32 00 45 00 00
 19.074073 1  300             Rx   d 8 61 00 00 32 00 45 00 00
 19.273974 1  300             Rx   d 8 62 00 00 32 00 45 00 00
 19.474055 1  300             Rx   d 8 63 00 00 32 00 45 00 00
 19.693396 1  300             Rx   d 8 64 00 00 32 00 46 00 00
 19.873759 1  300             Rx   d 8 65 00 00 32 00 45 00 00
 19.875029 1  320             Rx   d 8 1C 00 00 0B 00 00 00 00
 20.073709 1  300             Rx   d 8 66 00 00 32 00 45 00 00
 20.273504 1  300             Rx   d 8 67 00 00 32 00 45 00 00
 20.473479 1  300             Rx   d 8 68 00 00 32 00 45 00 00
 20.673503 1  300             Rx   d 8 69 00 00 32 00 45 00 00
 20.873347 1  300             Rx   d 8 6A 00 00 32 00 45 00 00
 21.073486 1  300             Rx   d 8 6B 00 00 32 00 45 00 00
 21.074682 1  320             Rx   d 8 1C 00 00 0D 00 00 00 00
 21.273608 1  300             Rx   d 8 6C 00 00 32 00 45 00 00
 21.473296 1  300             Rx   d 8 6D 00 00 32 00 45 00 00
 21.673026 1  300             Rx   d 8 6E 00 00 32 00 45 00 00
 21.873107 1  300             Rx   d 8 6F 00 00 32 00 45 00 00
 22.092644 1  300             Rx   d 8 70 00 00 32 00 45 00 00
 22.272287 1  300             Rx   d 8 71 00 00 32 00 45 00 00
 22.273483 1  320             Rx   d 8 1C 00 00 0A 00 00 00 00
 22.472835 1  300             Rx   d 8 72 00 00 32 00 45 00 00
 22.672122 1  300             Rx   d 8 73 00 00 32 00 45 00 00
 22.872138 1  300             Rx   d 8 74 00 00 32 00 45 00 00
 23.092445 1  300             Rx   d 8 75 00 00 32 00 45 00 00
 23.292281 1  300             Rx   d 8 76 00 00 32 00 45 00 00
 23.472669 1  300             Rx   d 8 77 00 00 32 00 46 00 00
 23.473865 1  320             Rx   d 8 17 00 00 08 00 00 00 00
 23.692001 1  300             Rx   d 8 78 00 00 32 00 45 00 00
 23.892083 1  300             Rx   d 8 79 00 00 32 00 45 00 00
 24.072364 1  300             Rx   d 8 7A 00 00 32 00 45 00 00
 24.272183 1  300             Rx   d 8 7B 00 00 32 00 45 00 00
 24.472175 1  300             Rx   d 8 7C 00 00 32 00 45 00 00
 24.672092 1  300             Rx   d 8 7D 00 00 32 00 45 00 00
 24.673157 1  320             Rx   d 8 1D 00 00 09 00 00 00 00
 24.891875 1  300             Rx   d 8 7E 00 00 32 00 45 00 00
 25.071829 1  300             Rx   d 8 7F 00 00 32 00 46 00 00
 25.291710 1  300             Rx   d 8 80 00 00 32 00 45 00 00
 25.471943 1  300             Rx   d 8 81 00 00 32 00 45 00 00
 25.671737 1  300             Rx   d 8 82 00 00 32 00 45 00 00
 25.871598 1  300             Rx   d 8 83 00 00 32 00 45 00 00
 25.872884 1  320             Rx   d 8 1C 00 00 09 00 00 00 00
 26.071744 1  300             Rx   d 8 84 00 00 32 00 45 00 00
 26.271056 1  300             Rx   d 8 85 00 00 32 00 46 00 00
 26.471432 1  300             Rx   d 8 86 00 00 32 00 45 00 00
 26.690920 1  300             Rx   d 8 87 00 00 32 00 46 00 00
 26.870374 1  300             Rx   d 8 88 00 00 32 00 45 00 00
 27.071308 1  300             Rx   d 8 89 00 00 32 00 45 00 00
 27.072758 1  320             Rx   d 8 1A 00 00 0B 00 00 00 00
 27.271258 1  300             Rx   d 8 8A 00 00 32 00 45 00 00
 27.490664 1  300             Rx   d 8 8B 00 00 32 00 45 00 00
 27.671077 1  300             Rx   d 8 8C 00 00 32 00 45 00 00
 27.870872 1  300             Rx   d 8 8D 00 00 32 00 45 00 00
 28.070814 1  300             Rx   d 8 8E 00 00 32 00 45 00 00
 28.270879 1  300             Rx   d 8 8F 00 00 32 00 45 00 00
 28.272345 1  320             Rx   d 8 1D 00 00 0B 00 00 00 00
 28.470780 1  300             Rx   d 8 90 00 00 32 00 46 00 00
 28.670689 1  300             Rx   d 8 91 00 00 32 00 45 00 00
 28.870574 1  300             Rx   d 8 92 00 00 32 00 45 00 00
 29.069803 1  300             Rx   d 8 93 00 00 32 00 45 00 00
 29.270475 1  300             Rx   d 8 94 00 00 32 00 45 00 00
 29.470392 1  300             Rx   d 8 95 00 00 32 00 45 00 00
 29.471875 1  320             Rx   d 8 1D 00 00 0C 00 00 00 00
 29.670367 1  300             Rx   d 8 96 00 00 32 00 46 00 00
End TriggerBlock
